Freq.	V(n002)
1.00000000000000e+03	(-1.45271415540621e+01dB,1.64216107360878e+02°)
1.00230523807790e+03	(-1.44878869068954e+01dB,1.64180168627778e+02°)
1.00461579027840e+03	(-1.44486356377095e+01dB,1.64144150084877e+02°)
1.00693166885180e+03	(-1.44093877615291e+01dB,1.64108051568787e+02°)
1.00925288607668e+03	(-1.43701432934431e+01dB,1.64071872915871e+02°)
1.01157945425990e+03	(-1.43309022486049e+01dB,1.64035613962258e+02°)
1.01391138573668e+03	(-1.42916646422328e+01dB,1.63999274543841e+02°)
1.01624869287070e+03	(-1.42524304896099e+01dB,1.63962854496265e+02°)
1.01859138805412e+03	(-1.42131998060849e+01dB,1.63926353654954e+02°)
1.02093948370768e+03	(-1.41739726070715e+01dB,1.63889771855074e+02°)
1.02329299228075e+03	(-1.41347489080496e+01dB,1.63853108931564e+02°)
1.02565192625141e+03	(-1.40955287245647e+01dB,1.63816364719125e+02°)
1.02801629812647e+03	(-1.40563120722290e+01dB,1.63779539052221e+02°)
1.03038612044162e+03	(-1.40170989667210e+01dB,1.63742631765076e+02°)
1.03276140576140e+03	(-1.39778894237859e+01dB,1.63705642691679e+02°)
1.03514216667934e+03	(-1.39386834592363e+01dB,1.63668571665793e+02°)
1.03752841581801e+03	(-1.38994810889517e+01dB,1.63631418520930e+02°)
1.03992016582906e+03	(-1.38602823288792e+01dB,1.63594183090373e+02°)
1.04231742939330e+03	(-1.38210871950340e+01dB,1.63556865207178e+02°)
1.04472021922080e+03	(-1.37818957034994e+01dB,1.63519464704157e+02°)
1.04712854805090e+03	(-1.37427078704266e+01dB,1.63481981413895e+02°)
1.04954242865232e+03	(-1.37035237120359e+01dB,1.63444415168737e+02°)
1.05196187382322e+03	(-1.36643432446163e+01dB,1.63406765800803e+02°)
1.05438689639126e+03	(-1.36251664845259e+01dB,1.63369033141976e+02°)
1.05681750921366e+03	(-1.35859934481921e+01dB,1.63331217023906e+02°)
1.05925372517729e+03	(-1.35468241521123e+01dB,1.63293317278016e+02°)
1.06169555719872e+03	(-1.35076586128536e+01dB,1.63255333735498e+02°)
1.06414301822431e+03	(-1.34684968470532e+01dB,1.63217266227302e+02°)
1.06659612123026e+03	(-1.34293388714193e+01dB,1.63179114584169e+02°)
1.06905487922266e+03	(-1.33901847027302e+01dB,1.63140878636590e+02°)
1.07151930523760e+03	(-1.33510343578356e+01dB,1.63102558214843e+02°)
1.07398941234124e+03	(-1.33118878536564e+01dB,1.63064153148964e+02°)
1.07646521362983e+03	(-1.32727452071851e+01dB,1.63025663268770e+02°)
1.07894672222983e+03	(-1.32336064354859e+01dB,1.62987088403849e+02°)
1.08143395129794e+03	(-1.31944715556953e+01dB,1.62948428383564e+02°)
1.08392691402120e+03	(-1.31553405850222e+01dB,1.62909683037044e+02°)
1.08642562361706e+03	(-1.31162135407478e+01dB,1.62870852193200e+02°)
1.08893009333343e+03	(-1.30770904402265e+01dB,1.62831935680710e+02°)
1.09144033644875e+03	(-1.30379713008860e+01dB,1.62792933328037e+02°)
1.09395636627209e+03	(-1.29988561402274e+01dB,1.62753844963417e+02°)
1.09647819614318e+03	(-1.29597449758254e+01dB,1.62714670414854e+02°)
1.09900583943252e+03	(-1.29206378253290e+01dB,1.62675409510142e+02°)
1.10153930954141e+03	(-1.28815347064614e+01dB,1.62636062076845e+02°)
1.10407861990207e+03	(-1.28424356370201e+01dB,1.62596627942298e+02°)
1.10662378397766e+03	(-1.28033406348782e+01dB,1.62557106933636e+02°)
1.10917481526240e+03	(-1.27642497179832e+01dB,1.62517498877751e+02°)
1.11173172728159e+03	(-1.27251629043586e+01dB,1.62477803601330e+02°)
1.11429453359173e+03	(-1.26860802121033e+01dB,1.62438020930835e+02°)
1.11686324778056e+03	(-1.26470016593924e+01dB,1.62398150692507e+02°)
1.11943788346715e+03	(-1.26079272644771e+01dB,1.62358192712376e+02°)
1.12201845430196e+03	(-1.25688570456855e+01dB,1.62318146816250e+02°)
1.12460497396692e+03	(-1.25297910214222e+01dB,1.62278012829717e+02°)
1.12719745617551e+03	(-1.24907292101692e+01dB,1.62237790578155e+02°)
1.12979591467279e+03	(-1.24516716304859e+01dB,1.62197479886729e+02°)
1.13240036323555e+03	(-1.24126183010094e+01dB,1.62157080580379e+02°)
1.13501081567231e+03	(-1.23735692404548e+01dB,1.62116592483837e+02°)
1.13762728582343e+03	(-1.23345244676155e+01dB,1.62076015421627e+02°)
1.14024978756117e+03	(-1.22954840013636e+01dB,1.62035349218053e+02°)
1.14287833478977e+03	(-1.22564478606501e+01dB,1.61994593697211e+02°)
1.14551294144553e+03	(-1.22174160645049e+01dB,1.61953748682979e+02°)
1.14815362149688e+03	(-1.21783886320377e+01dB,1.61912813999037e+02°)
1.15080038894443e+03	(-1.21393655824381e+01dB,1.61871789468852e+02°)
1.15345325782109e+03	(-1.21003469349751e+01dB,1.61830674915666e+02°)
1.15611224219209e+03	(-1.20613327089988e+01dB,1.61789470162538e+02°)
1.15877735615512e+03	(-1.20223229239394e+01dB,1.61748175032303e+02°)
1.16144861384034e+03	(-1.19833175993085e+01dB,1.61706789347591e+02°)
1.16412602941049e+03	(-1.19443167546987e+01dB,1.61665312930839e+02°)
1.16680961706096e+03	(-1.19053204097841e+01dB,1.61623745604264e+02°)
1.16949939101987e+03	(-1.18663285843209e+01dB,1.61582087189885e+02°)
1.17219536554813e+03	(-1.18273412981470e+01dB,1.61540337509521e+02°)
1.17489755493952e+03	(-1.17883585711833e+01dB,1.61498496384783e+02°)
1.17760597352080e+03	(-1.17493804234330e+01dB,1.61456563637082e+02°)
1.18032063565173e+03	(-1.17104068749826e+01dB,1.61414539087633e+02°)
1.18304155572516e+03	(-1.16714379460018e+01dB,1.61372422557445e+02°)
1.18576874816716e+03	(-1.16324736567440e+01dB,1.61330213867334e+02°)
1.18850222743701e+03	(-1.15935140275466e+01dB,1.61287912837908e+02°)
1.19124200802737e+03	(-1.15545590788313e+01dB,1.61245519289593e+02°)
1.19398810446427e+03	(-1.15156088311041e+01dB,1.61203033042604e+02°)
1.19674053130724e+03	(-1.14766633049563e+01dB,1.61160453916976e+02°)
1.19949930314937e+03	(-1.14377225210639e+01dB,1.61117781732528e+02°)
1.20226443461741e+03	(-1.13987865001887e+01dB,1.61075016308907e+02°)
1.20503594037179e+03	(-1.13598552631783e+01dB,1.61032157465560e+02°)
1.20781383510677e+03	(-1.13209288309662e+01dB,1.60989205021734e+02°)
1.21059813355048e+03	(-1.12820072245724e+01dB,1.60946158796499e+02°)
1.21338885046497e+03	(-1.12430904651037e+01dB,1.60903018608728e+02°)
1.21618600064636e+03	(-1.12041785737538e+01dB,1.60859784277104e+02°)
1.21898959892486e+03	(-1.11652715718038e+01dB,1.60816455620129e+02°)
1.22179966016487e+03	(-1.11263694806226e+01dB,1.60773032456115e+02°)
1.22461619926504e+03	(-1.10874723216666e+01dB,1.60729514603182e+02°)
1.22743923115840e+03	(-1.10485801164811e+01dB,1.60685901879278e+02°)
1.23026877081238e+03	(-1.10096928866995e+01dB,1.60642194102156e+02°)
1.23310483322890e+03	(-1.09708106540443e+01dB,1.60598391089390e+02°)
1.23594743344450e+03	(-1.09319334403272e+01dB,1.60554492658382e+02°)
1.23879658653036e+03	(-1.08930612674494e+01dB,1.60510498626337e+02°)
1.24165230759240e+03	(-1.08541941574021e+01dB,1.60466408810293e+02°)
1.24451461177138e+03	(-1.08153321322664e+01dB,1.60422223027106e+02°)
1.24738351424294e+03	(-1.07764752142141e+01dB,1.60377941093452e+02°)
1.25025903021771e+03	(-1.07376234255079e+01dB,1.60333562825845e+02°)
1.25314117494141e+03	(-1.06987767885011e+01dB,1.60289088040598e+02°)
1.25602996369487e+03	(-1.06599353256393e+01dB,1.60244516553879e+02°)
1.25892541179416e+03	(-1.06210990594589e+01dB,1.60199848181661e+02°)
1.26182753459066e+03	(-1.05822680125891e+01dB,1.60155082739761e+02°)
1.26473634747114e+03	(-1.05434422077512e+01dB,1.60110220043817e+02°)
1.26765186585784e+03	(-1.05046216677593e+01dB,1.60065259909300e+02°)
1.27057410520853e+03	(-1.04658064155205e+01dB,1.60020202151516e+02°)
1.27350308101665e+03	(-1.04269964740353e+01dB,1.59975046585597e+02°)
1.27643880881134e+03	(-1.03881918663980e+01dB,1.59929793026522e+02°)
1.27938130415752e+03	(-1.03493926157967e+01dB,1.59884441289094e+02°)
1.28233058265601e+03	(-1.03105987455141e+01dB,1.59838991187963e+02°)
1.28528665994361e+03	(-1.02718102789272e+01dB,1.59793442537604e+02°)
1.28824955169313e+03	(-1.02330272395085e+01dB,1.59747795152345e+02°)
1.29121927361353e+03	(-1.01942496508255e+01dB,1.59702048846355e+02°)
1.29419584144998e+03	(-1.01554775365413e+01dB,1.59656203433627e+02°)
1.29717927098395e+03	(-1.01167109204152e+01dB,1.59610258728019e+02°)
1.30016957803328e+03	(-1.00779498263027e+01dB,1.59564214543227e+02°)
1.30316677845229e+03	(-1.00391942781559e+01dB,1.59518070692786e+02°)
1.30617088813183e+03	(-1.00004443000240e+01dB,1.59471826990089e+02°)
1.30918192299940e+03	(-9.96169991605315e+00dB,1.59425483248363e+02°)
1.31219989901920e+03	(-9.92296115048768e+00dB,1.59379039280705e+02°)
1.31522483219223e+03	(-9.88422802766944e+00dB,1.59332494900050e+02°)
1.31825673855640e+03	(-9.84550057203874e+00dB,1.59285849919189e+02°)
1.32129563418657e+03	(-9.80677880813449e+00dB,1.59239104150767e+02°)
1.32434153519466e+03	(-9.76806276059452e+00dB,1.59192257407287e+02°)
1.32739445772973e+03	(-9.72935245415602e+00dB,1.59145309501107e+02°)
1.33045441797808e+03	(-9.69064791365579e+00dB,1.59098260244446e+02°)
1.33352143216332e+03	(-9.65194916403056e+00dB,1.59051109449382e+02°)
1.33659551654643e+03	(-9.61325623031725e+00dB,1.59003856927850e+02°)
1.33967668742593e+03	(-9.57456913765361e+00dB,1.58956502491654e+02°)
1.34276496113785e+03	(-9.53588791127822e+00dB,1.58909045952461e+02°)
1.34586035405594e+03	(-9.49721257653106e+00dB,1.58861487121806e+02°)
1.34896288259164e+03	(-9.45854315885365e+00dB,1.58813825811088e+02°)
1.35207256319427e+03	(-9.41987968378952e+00dB,1.58766061831576e+02°)
1.35518941235103e+03	(-9.38122217698454e+00dB,1.58718194994412e+02°)
1.35831344658714e+03	(-9.34257066418709e+00dB,1.58670225110602e+02°)
1.36144468246594e+03	(-9.30392517124891e+00dB,1.58622151991045e+02°)
1.36458313658891e+03	(-9.26528572412452e+00dB,1.58573975446489e+02°)
1.36772882559584e+03	(-9.22665234887258e+00dB,1.58525695287581e+02°)
1.37088176616484e+03	(-9.18802507165559e+00dB,1.58477311324839e+02°)
1.37404197501251e+03	(-9.14940391874035e+00dB,1.58428823368657e+02°)
1.37720946889394e+03	(-9.11078891649828e+00dB,1.58380231229311e+02°)
1.38038426460287e+03	(-9.07218009140622e+00dB,1.58331534716977e+02°)
1.38356637897177e+03	(-9.03357747004583e+00dB,1.58282733641690e+02°)
1.38675582887188e+03	(-8.99498107910499e+00dB,1.58233827813395e+02°)
1.38995263121334e+03	(-8.95639094537717e+00dB,1.58184817041907e+02°)
1.39315680294529e+03	(-8.91780709576274e+00dB,1.58135701136950e+02°)
1.39636836105593e+03	(-8.87922955726826e+00dB,1.58086479908119e+02°)
1.39958732257261e+03	(-8.84065835700803e+00dB,1.58037153164929e+02°)
1.40281370456195e+03	(-8.80209352220312e+00dB,1.57987720716762e+02°)
1.40604752412990e+03	(-8.76353508018292e+00dB,1.57938182372922e+02°)
1.40928879842186e+03	(-8.72498305838451e+00dB,1.57888537942594e+02°)
1.41253754462274e+03	(-8.68643748435375e+00dB,1.57838787234875e+02°)
1.41579377995707e+03	(-8.64789838574510e+00dB,1.57788930058758e+02°)
1.41905752168908e+03	(-8.60936579032252e+00dB,1.57738966223155e+02°)
1.42232878712281e+03	(-8.57083972595881e+00dB,1.57688895536854e+02°)
1.42560759360218e+03	(-8.53232022063745e+00dB,1.57638717808590e+02°)
1.42889395851109e+03	(-8.49380730245149e+00dB,1.57588432846980e+02°)
1.43218789927353e+03	(-8.45530099960481e+00dB,1.57538040460563e+02°)
1.43548943335364e+03	(-8.41680134041195e+00dB,1.57487540457787e+02°)
1.43879857825583e+03	(-8.37830835329917e+00dB,1.57436932647032e+02°)
1.44211535152486e+03	(-8.33982206680373e+00dB,1.57386216836573e+02°)
1.44543977074592e+03	(-8.30134250957523e+00dB,1.57335392834623e+02°)
1.44877185354475e+03	(-8.26286971037528e+00dB,1.57284460449303e+02°)
1.45211161758773e+03	(-8.22440369807843e+00dB,1.57233419488672e+02°)
1.45545908058195e+03	(-8.18594450167193e+00dB,1.57182269760703e+02°)
1.45881426027534e+03	(-8.14749215025652e+00dB,1.57131011073304e+02°)
1.46217717445671e+03	(-8.10904667304655e+00dB,1.57079643234309e+02°)
1.46554784095590e+03	(-8.07060809937047e+00dB,1.57028166051488e+02°)
1.46892627764385e+03	(-8.03217645867104e+00dB,1.56976579332540e+02°)
1.47231250243271e+03	(-7.99375178050578e+00dB,1.56924882885106e+02°)
1.47570653327588e+03	(-7.95533409454724e+00dB,1.56873076516758e+02°)
1.47910838816819e+03	(-7.91692343058336e+00dB,1.56821160035009e+02°)
1.48251808514594e+03	(-7.87851981851826e+00dB,1.56769133247332e+02°)
1.48593564228699e+03	(-7.84012328837148e+00dB,1.56716995961115e+02°)
1.48936107771090e+03	(-7.80173387027966e+00dB,1.56664747983715e+02°)
1.49279440957898e+03	(-7.76335159449609e+00dB,1.56612389122437e+02°)
1.49623565609442e+03	(-7.72497649139090e+00dB,1.56559919184516e+02°)
1.49968483550236e+03	(-7.68660859145246e+00dB,1.56507337977175e+02°)
1.50314196609001e+03	(-7.64824792528645e+00dB,1.56454645307566e+02°)
1.50660706618673e+03	(-7.60989452361683e+00dB,1.56401840982802e+02°)
1.51008015416413e+03	(-7.57154841728644e+00dB,1.56348924809967e+02°)
1.51356124843619e+03	(-7.53320963725672e+00dB,1.56295896596096e+02°)
1.51705036745932e+03	(-7.49487821460878e+00dB,1.56242756148201e+02°)
1.52054752973248e+03	(-7.45655418054308e+00dB,1.56189503273251e+02°)
1.52405275379728e+03	(-7.41823756638007e+00dB,1.56136137778186e+02°)
1.52756605823806e+03	(-7.37992840356081e+00dB,1.56082659469925e+02°)
1.53108746168201e+03	(-7.34162672364678e+00dB,1.56029068155353e+02°)
1.53461698279928e+03	(-7.30333255832063e+00dB,1.55975363641335e+02°)
1.53815464030302e+03	(-7.26504593938634e+00dB,1.55921545734713e+02°)
1.54170045294954e+03	(-7.22676689876995e+00dB,1.55867614242321e+02°)
1.54525443953840e+03	(-7.18849546851904e+00dB,1.55813568970957e+02°)
1.54881661891247e+03	(-7.15023168080406e+00dB,1.55759409727420e+02°)
1.55238700995807e+03	(-7.11197556791824e+00dB,1.55705136318497e+02°)
1.55596563160506e+03	(-7.07372716227778e+00dB,1.55650748550962e+02°)
1.55955250282694e+03	(-7.03548649642260e+00dB,1.55596246231586e+02°)
1.56314764264094e+03	(-6.99725360301636e+00dB,1.55541629167135e+02°)
1.56675107010813e+03	(-6.95902851484692e+00dB,1.55486897164374e+02°)
1.57036280433354e+03	(-6.92081126482676e+00dB,1.55432050030069e+02°)
1.57398286446620e+03	(-6.88260188599317e+00dB,1.55377087570989e+02°)
1.57761126969933e+03	(-6.84440041150898e+00dB,1.55322009593920e+02°)
1.58124803927037e+03	(-6.80620687466222e+00dB,1.55266815905640e+02°)
1.58489319246110e+03	(-6.76802130886726e+00dB,1.55211506312955e+02°)
1.58854674859776e+03	(-6.72984374766442e+00dB,1.55156080622671e+02°)
1.59220872705115e+03	(-6.69167422472099e+00dB,1.55100538641623e+02°)
1.59587914723672e+03	(-6.65351277383132e+00dB,1.55044880176669e+02°)
1.59955802861465e+03	(-6.61535942891688e+00dB,1.54989105034679e+02°)
1.60324539069002e+03	(-6.57721422402687e+00dB,1.54933213022550e+02°)
1.60694125301286e+03	(-6.53907719333875e+00dB,1.54877203947216e+02°)
1.61064563517825e+03	(-6.50094837115815e+00dB,1.54821077615630e+02°)
1.61435855682647e+03	(-6.46282779191967e+00dB,1.54764833834792e+02°)
1.61808003764305e+03	(-6.42471549018690e+00dB,1.54708472411730e+02°)
1.62181009735891e+03	(-6.38661150065297e+00dB,1.54651993153516e+02°)
1.62554875575047e+03	(-6.34851585814067e+00dB,1.54595395867261e+02°)
1.62929603263970e+03	(-6.31042859760307e+00dB,1.54538680360122e+02°)
1.63305194789432e+03	(-6.27234975412368e+00dB,1.54481846439309e+02°)
1.63681652142779e+03	(-6.23427936291665e+00dB,1.54424893912069e+02°)
1.64058977319952e+03	(-6.19621745932791e+00dB,1.54367822585728e+02°)
1.64437172321491e+03	(-6.15816407883438e+00dB,1.54310632267651e+02°)
1.64816239152549e+03	(-6.12011925704511e+00dB,1.54253322765269e+02°)
1.65196179822900e+03	(-6.08208302970093e+00dB,1.54195893886061e+02°)
1.65576996346951e+03	(-6.04405543267592e+00dB,1.54138345437598e+02°)
1.65958690743754e+03	(-6.00603650197670e+00dB,1.54080677227506e+02°)
1.66341265037015e+03	(-5.96802627374305e+00dB,1.54022889063479e+02°)
1.66724721255104e+03	(-5.93002478424861e+00dB,1.53964980753298e+02°)
1.67109061431069e+03	(-5.89203206990079e+00dB,1.53906952104815e+02°)
1.67494287602642e+03	(-5.85404816724138e+00dB,1.53848802925967e+02°)
1.67880401812254e+03	(-5.81607311294670e+00dB,1.53790533024772e+02°)
1.68267406107045e+03	(-5.77810694382815e+00dB,1.53732142209343e+02°)
1.68655302538872e+03	(-5.74014969683199e+00dB,1.53673630287863e+02°)
1.69044093164324e+03	(-5.70220140904091e+00dB,1.53614997068643e+02°)
1.69433780044731e+03	(-5.66426211767302e+00dB,1.53556242360068e+02°)
1.69824365246172e+03	(-5.62633186008280e+00dB,1.53497365970627e+02°)
1.70215850839493e+03	(-5.58841067376157e+00dB,1.53438367708920e+02°)
1.70608238900310e+03	(-5.55049859633742e+00dB,1.53379247383644e+02°)
1.71001531509027e+03	(-5.51259566557605e+00dB,1.53320004803620e+02°)
1.71395730750840e+03	(-5.47470191938051e+00dB,1.53260639777769e+02°)
1.71790838715757e+03	(-5.43681739579208e+00dB,1.53201152115141e+02°)
1.72186857498599e+03	(-5.39894213299023e+00dB,1.53141541624897e+02°)
1.72583789199018e+03	(-5.36107616929334e+00dB,1.53081808116335e+02°)
1.72981635921508e+03	(-5.32321954315828e+00dB,1.53021951398860e+02°)
1.73380399775412e+03	(-5.28537229318191e+00dB,1.52961971282034e+02°)
1.73780082874935e+03	(-5.24753445810019e+00dB,1.52901867575531e+02°)
1.74180687339159e+03	(-5.20970607678948e+00dB,1.52841640089179e+02°)
1.74582215292048e+03	(-5.17188718826613e+00dB,1.52781288632935e+02°)
1.74984668862463e+03	(-5.13407783168739e+00dB,1.52720813016912e+02°)
1.75388050184174e+03	(-5.09627804635123e+00dB,1.52660213051359e+02°)
1.75792361395867e+03	(-5.05848787169719e+00dB,1.52599488546690e+02°)
1.76197604641161e+03	(-5.02070734730624e+00dB,1.52538639313466e+02°)
1.76603782068614e+03	(-4.98293651290151e+00dB,1.52477665162417e+02°)
1.77010895831740e+03	(-4.94517540834797e+00dB,1.52416565904418e+02°)
1.77418948089014e+03	(-4.90742407365379e+00dB,1.52355341350534e+02°)
1.77827941003890e+03	(-4.86968254896964e+00dB,1.52293991311985e+02°)
1.78237876744807e+03	(-4.83195087458941e+00dB,1.52232515600164e+02°)
1.78648757485203e+03	(-4.79422909095092e+00dB,1.52170914026657e+02°)
1.79060585403527e+03	(-4.75651723863525e+00dB,1.52109186403207e+02°)
1.79473362683250e+03	(-4.71881535836816e+00dB,1.52047332541763e+02°)
1.79887091512876e+03	(-4.68112349102018e+00dB,1.51985352254470e+02°)
1.80301774085954e+03	(-4.64344167760570e+00dB,1.51923245353632e+02°)
1.80717412601090e+03	(-4.60576995928510e+00dB,1.51861011651782e+02°)
1.81134009261958e+03	(-4.56810837736388e+00dB,1.51798650961642e+02°)
1.81551566277311e+03	(-4.53045697329338e+00dB,1.51736163096140e+02°)
1.81970085860996e+03	(-4.49281578867090e+00dB,1.51673547868408e+02°)
1.82389570231961e+03	(-4.45518486523989e+00dB,1.51610805091786e+02°)
1.82810021614272e+03	(-4.41756424489168e+00dB,1.51547934579871e+02°)
1.83231442237119e+03	(-4.37995396966259e+00dB,1.51484936146408e+02°)
1.83653834334832e+03	(-4.34235408173793e+00dB,1.51421809605428e+02°)
1.84077200146893e+03	(-4.30476462344993e+00dB,1.51358554771169e+02°)
1.84501541917945e+03	(-4.26718563727854e+00dB,1.51295171458090e+02°)
1.84926861897805e+03	(-4.22961716585265e+00dB,1.51231659480918e+02°)
1.85353162341478e+03	(-4.19205925194865e+00dB,1.51168018654582e+02°)
1.85780445509167e+03	(-4.15451193849262e+00dB,1.51104248794288e+02°)
1.86208713666284e+03	(-4.11697526855910e+00dB,1.51040349715472e+02°)
1.86637969083464e+03	(-4.07944928537221e+00dB,1.50976321233824e+02°)
1.87068214036577e+03	(-4.04193403230611e+00dB,1.50912163165311e+02°)
1.87499450806739e+03	(-4.00442955288438e+00dB,1.50847875326136e+02°)
1.87931681680324e+03	(-3.96693589078108e+00dB,1.50783457532781e+02°)
1.88364908948977e+03	(-3.92945308982098e+00dB,1.50718909602000e+02°)
1.88799134909627e+03	(-3.89198119397938e+00dB,1.50654231350812e+02°)
1.89234361864495e+03	(-3.85452024738308e+00dB,1.50589422596530e+02°)
1.89670592121112e+03	(-3.81707029431003e+00dB,1.50524483156738e+02°)
1.90107827992327e+03	(-3.77963137918955e+00dB,1.50459412849298e+02°)
1.90546071796322e+03	(-3.74220354660368e+00dB,1.50394211492390e+02°)
1.90985325856621e+03	(-3.70478684128623e+00dB,1.50328878904476e+02°)
1.91425592502106e+03	(-3.66738130812354e+00dB,1.50263414904316e+02°)
1.91866874067026e+03	(-3.62998699215461e+00dB,1.50197819310972e+02°)
1.92309172891013e+03	(-3.59260393857214e+00dB,1.50132091943838e+02°)
