V2	V(n002)	V(n003)	V(n004)
0.000000000000000e+00	6.876208e-01	2.003538e+00	4.182712e+00
2.500000000000000e-02	6.702427e-01	1.992903e+00	4.177670e+00
5.000000000000000e-02	6.528645e-01	1.982268e+00	4.172627e+00
7.500000000000001e-02	6.354864e-01	1.971633e+00	4.167584e+00
1.000000000000000e-01	6.181082e-01	1.960998e+00	4.162542e+00
1.250000000000000e-01	6.007300e-01	1.950362e+00	4.157499e+00
1.500000000000000e-01	5.833519e-01	1.939727e+00	4.152457e+00
1.750000000000000e-01	5.659737e-01	1.929092e+00	4.147414e+00
2.000000000000000e-01	5.485955e-01	1.918457e+00	4.142372e+00
2.250000000000000e-01	5.312173e-01	1.907822e+00	4.137329e+00
2.500000000000000e-01	5.138392e-01	1.897186e+00	4.132287e+00
2.750000000000000e-01	4.964610e-01	1.886551e+00	4.127244e+00
3.000000000000000e-01	4.790829e-01	1.875916e+00	4.122201e+00
3.250000000000000e-01	4.617047e-01	1.865281e+00	4.117159e+00
3.500000000000000e-01	4.443265e-01	1.854645e+00	4.112116e+00
3.750000000000000e-01	4.269484e-01	1.844010e+00	4.107074e+00
4.000000000000000e-01	4.095702e-01	1.833375e+00	4.102031e+00
4.250000000000000e-01	3.921920e-01	1.822740e+00	4.096989e+00
4.500000000000000e-01	3.748139e-01	1.812105e+00	4.091946e+00
4.750000000000000e-01	3.574357e-01	1.801470e+00	4.086904e+00
5.000000000000000e-01	3.400575e-01	1.790834e+00	4.081861e+00
5.250000000000000e-01	3.226794e-01	1.780199e+00	4.076818e+00
5.500000000000000e-01	3.053012e-01	1.769564e+00	4.071776e+00
5.750000000000001e-01	2.879230e-01	1.758929e+00	4.066733e+00
6.000000000000001e-01	2.705449e-01	1.748294e+00	4.061691e+00
6.250000000000000e-01	2.531667e-01	1.737658e+00	4.056648e+00
6.500000000000000e-01	2.357885e-01	1.727023e+00	4.051606e+00
6.750000000000000e-01	2.184104e-01	1.716388e+00	4.046563e+00
7.000000000000001e-01	2.010322e-01	1.705753e+00	4.041521e+00
7.250000000000001e-01	1.836541e-01	1.695117e+00	4.036478e+00
7.500000000000000e-01	1.662759e-01	1.684482e+00	4.031435e+00
7.750000000000000e-01	1.488977e-01	1.673847e+00	4.026393e+00
8.000000000000000e-01	1.315196e-01	1.663212e+00	4.021350e+00
8.250000000000001e-01	1.141414e-01	1.652577e+00	4.016308e+00
8.500000000000001e-01	9.676322e-02	1.641941e+00	4.011265e+00
8.750000000000000e-01	7.938506e-02	1.631306e+00	4.006223e+00
9.000000000000000e-01	6.200690e-02	1.620671e+00	4.001180e+00
9.250000000000000e-01	4.462873e-02	1.610036e+00	3.996138e+00
9.500000000000001e-01	2.725057e-02	1.599401e+00	3.991095e+00
9.750000000000001e-01	9.872401e-03	1.588766e+00	3.986053e+00
1.000000000000000e+00	-7.505763e-03	1.578130e+00	3.981010e+00
1.025000000000000e+00	-2.488393e-02	1.567495e+00	3.975967e+00
1.050000000000000e+00	-4.226209e-02	1.556860e+00	3.970925e+00
1.075000000000000e+00	-5.964026e-02	1.546225e+00	3.965882e+00
1.100000000000000e+00	-7.701842e-02	1.535589e+00	3.960840e+00
1.125000000000000e+00	-9.439659e-02	1.524954e+00	3.955797e+00
1.150000000000000e+00	-1.117748e-01	1.514319e+00	3.950755e+00
1.175000000000000e+00	-1.291529e-01	1.503684e+00	3.945712e+00
1.200000000000000e+00	-1.465311e-01	1.493049e+00	3.940670e+00
1.225000000000000e+00	-1.639092e-01	1.482413e+00	3.935627e+00
1.250000000000000e+00	-1.812874e-01	1.471778e+00	3.930584e+00
1.275000000000000e+00	-1.986656e-01	1.461143e+00	3.925542e+00
1.300000000000000e+00	-2.160437e-01	1.450508e+00	3.920499e+00
1.325000000000000e+00	-2.334219e-01	1.439873e+00	3.915457e+00
1.350000000000000e+00	-2.508001e-01	1.429237e+00	3.910414e+00
1.375000000000000e+00	-2.681782e-01	1.418602e+00	3.905372e+00
1.400000000000000e+00	-2.855564e-01	1.407967e+00	3.900329e+00
1.425000000000000e+00	-3.029346e-01	1.397332e+00	3.895287e+00
1.450000000000000e+00	-3.203127e-01	1.386697e+00	3.890244e+00
1.475000000000000e+00	-3.376909e-01	1.376061e+00	3.885201e+00
1.500000000000000e+00	-3.550691e-01	1.365426e+00	3.880159e+00
1.525000000000000e+00	-3.724472e-01	1.354791e+00	3.875116e+00
1.550000000000000e+00	-3.898254e-01	1.344156e+00	3.870074e+00
1.575000000000000e+00	-4.072036e-01	1.333521e+00	3.865031e+00
1.600000000000000e+00	-4.245817e-01	1.322885e+00	3.859989e+00
1.625000000000000e+00	-4.419599e-01	1.312250e+00	3.854946e+00
1.650000000000000e+00	-4.593380e-01	1.301615e+00	3.849904e+00
1.675000000000000e+00	-4.767162e-01	1.290980e+00	3.844861e+00
1.700000000000000e+00	-4.940944e-01	1.280345e+00	3.839818e+00
1.725000000000000e+00	-5.114725e-01	1.269709e+00	3.834776e+00
1.750000000000000e+00	-5.288507e-01	1.259074e+00	3.829733e+00
1.775000000000000e+00	-5.462289e-01	1.248439e+00	3.824691e+00
1.800000000000000e+00	-5.636070e-01	1.237804e+00	3.819648e+00
1.825000000000000e+00	-5.809852e-01	1.227169e+00	3.814606e+00
1.850000000000000e+00	-5.983634e-01	1.216533e+00	3.809563e+00
1.875000000000000e+00	-6.157416e-01	1.205898e+00	3.804521e+00
1.900000000000000e+00	-6.331197e-01	1.195263e+00	3.799478e+00
1.925000000000000e+00	-6.504979e-01	1.184628e+00	3.794436e+00
1.950000000000000e+00	-6.678760e-01	1.173993e+00	3.789393e+00
1.975000000000000e+00	-6.852542e-01	1.163357e+00	3.784350e+00
2.000000000000000e+00	-7.026324e-01	1.152722e+00	3.779308e+00
2.025000000000000e+00	-7.200105e-01	1.142087e+00	3.774265e+00
2.050000000000000e+00	-7.373887e-01	1.131452e+00	3.769223e+00
2.075000000000000e+00	-7.547669e-01	1.120817e+00	3.764180e+00
2.100000000000000e+00	-7.721450e-01	1.110181e+00	3.759138e+00
2.125000000000000e+00	-7.895232e-01	1.099546e+00	3.754095e+00
2.150000000000000e+00	-8.069013e-01	1.088911e+00	3.749053e+00
2.175000000000000e+00	-8.242795e-01	1.078276e+00	3.744010e+00
2.200000000000000e+00	-8.416577e-01	1.067641e+00	3.738967e+00
2.225000000000000e+00	-8.590358e-01	1.057005e+00	3.733925e+00
2.250000000000000e+00	-8.764140e-01	1.046370e+00	3.728882e+00
2.275000000000000e+00	-8.937922e-01	1.035735e+00	3.723840e+00
2.300000000000000e+00	-9.111704e-01	1.025100e+00	3.718797e+00
2.325000000000000e+00	-9.285485e-01	1.014464e+00	3.713755e+00
2.350000000000000e+00	-9.459267e-01	1.003829e+00	3.708712e+00
2.375000000000000e+00	-9.633048e-01	9.931942e-01	3.703670e+00
2.400000000000000e+00	-9.806830e-01	9.825590e-01	3.698627e+00
2.425000000000000e+00	-9.980612e-01	9.719237e-01	3.693584e+00
2.450000000000000e+00	-1.015439e+00	9.612885e-01	3.688542e+00
2.475000000000000e+00	-1.032817e+00	9.506533e-01	3.683499e+00
2.500000000000000e+00	-1.050196e+00	9.400181e-01	3.678457e+00
2.525000000000000e+00	-1.067574e+00	9.293829e-01	3.673414e+00
2.550000000000000e+00	-1.084952e+00	9.187477e-01	3.668372e+00
2.575000000000000e+00	-1.102330e+00	9.081125e-01	3.663329e+00
2.600000000000000e+00	-1.119708e+00	8.974773e-01	3.658287e+00
2.625000000000000e+00	-1.137087e+00	8.868421e-01	3.653244e+00
2.650000000000000e+00	-1.154465e+00	8.762069e-01	3.648201e+00
2.675000000000000e+00	-1.171843e+00	8.655717e-01	3.643159e+00
2.700000000000000e+00	-1.189221e+00	8.549365e-01	3.638116e+00
2.725000000000000e+00	-1.206599e+00	8.443013e-01	3.633074e+00
2.750000000000000e+00	-1.223977e+00	8.336661e-01	3.628031e+00
2.775000000000000e+00	-1.241355e+00	8.230309e-01	3.622989e+00
2.800000000000000e+00	-1.258734e+00	8.123957e-01	3.617946e+00
2.825000000000000e+00	-1.276112e+00	8.017605e-01	3.612904e+00
2.850000000000000e+00	-1.293490e+00	7.911253e-01	3.607861e+00
2.875000000000000e+00	-1.310868e+00	7.804901e-01	3.602818e+00
2.900000000000000e+00	-1.328246e+00	7.698549e-01	3.597776e+00
2.925000000000000e+00	-1.345624e+00	7.592197e-01	3.592733e+00
2.950000000000000e+00	-1.363003e+00	7.485845e-01	3.587691e+00
2.975000000000000e+00	-1.380381e+00	7.379493e-01	3.582648e+00
3.000000000000000e+00	-1.397759e+00	7.273141e-01	3.577606e+00
3.025000000000000e+00	-1.415137e+00	7.166789e-01	3.572563e+00
3.050000000000000e+00	-1.432515e+00	7.060437e-01	3.567521e+00
3.075000000000000e+00	-1.449893e+00	6.954085e-01	3.562478e+00
3.100000000000000e+00	-1.467272e+00	6.847733e-01	3.557436e+00
3.125000000000000e+00	-1.484650e+00	6.741381e-01	3.552393e+00
3.150000000000000e+00	-1.502028e+00	6.635029e-01	3.547350e+00
3.175000000000000e+00	-1.519406e+00	6.528677e-01	3.542308e+00
3.200000000000000e+00	-1.536784e+00	6.422325e-01	3.537265e+00
3.225000000000000e+00	-1.554163e+00	6.315973e-01	3.532223e+00
3.250000000000000e+00	-1.571541e+00	6.209621e-01	3.527180e+00
3.275000000000000e+00	-1.588919e+00	6.103269e-01	3.522138e+00
3.300000000000000e+00	-1.606297e+00	5.996916e-01	3.517095e+00
3.325000000000000e+00	-1.623675e+00	5.890564e-01	3.512053e+00
3.350000000000000e+00	-1.641053e+00	5.784212e-01	3.507010e+00
3.375000000000000e+00	-1.658431e+00	5.677860e-01	3.501967e+00
3.400000000000000e+00	-1.675810e+00	5.571508e-01	3.496925e+00
3.425000000000000e+00	-1.693188e+00	5.465156e-01	3.491882e+00
3.450000000000000e+00	-1.710566e+00	5.358804e-01	3.486840e+00
3.475000000000000e+00	-1.727944e+00	5.252452e-01	3.481797e+00
3.500000000000000e+00	-1.745322e+00	5.146101e-01	3.476755e+00
3.525000000000000e+00	-1.762700e+00	5.039749e-01	3.471712e+00
3.550000000000000e+00	-1.780079e+00	4.933396e-01	3.466670e+00
3.575000000000000e+00	-1.797457e+00	4.827044e-01	3.461627e+00
3.600000000000000e+00	-1.814835e+00	4.720692e-01	3.456584e+00
3.625000000000000e+00	-1.832213e+00	4.614340e-01	3.451542e+00
3.650000000000000e+00	-1.849591e+00	4.507988e-01	3.446499e+00
3.675000000000000e+00	-1.866969e+00	4.401636e-01	3.441457e+00
3.700000000000000e+00	-1.884348e+00	4.295284e-01	3.436414e+00
3.725000000000000e+00	-1.901726e+00	4.188932e-01	3.431372e+00
3.750000000000000e+00	-1.919104e+00	4.082580e-01	3.426329e+00
3.775000000000000e+00	-1.936482e+00	3.976228e-01	3.421287e+00
3.800000000000000e+00	-1.953860e+00	3.869876e-01	3.416244e+00
3.825000000000000e+00	-1.971238e+00	3.763524e-01	3.411201e+00
3.850000000000000e+00	-1.988617e+00	3.657172e-01	3.406159e+00
3.875000000000000e+00	-2.005995e+00	3.550820e-01	3.401116e+00
3.900000000000000e+00	-2.023373e+00	3.444468e-01	3.396074e+00
3.925000000000000e+00	-2.040751e+00	3.338116e-01	3.391031e+00
3.950000000000000e+00	-2.058129e+00	3.231764e-01	3.385989e+00
3.975000000000000e+00	-2.075507e+00	3.125412e-01	3.380946e+00
4.000000000000000e+00	-2.092885e+00	3.019060e-01	3.375904e+00
4.025000000000000e+00	-2.110264e+00	2.912708e-01	3.370861e+00
4.050000000000000e+00	-2.127642e+00	2.806356e-01	3.365819e+00
4.075000000000000e+00	-2.145020e+00	2.700004e-01	3.360776e+00
4.100000000000001e+00	-2.162398e+00	2.593652e-01	3.355733e+00
4.125000000000000e+00	-2.179776e+00	2.487300e-01	3.350691e+00
4.150000000000000e+00	-2.197155e+00	2.380948e-01	3.345648e+00
4.175000000000000e+00	-2.214533e+00	2.274596e-01	3.340606e+00
4.200000000000000e+00	-2.231911e+00	2.168244e-01	3.335563e+00
4.225000000000001e+00	-2.249289e+00	2.061892e-01	3.330521e+00
4.250000000000000e+00	-2.266667e+00	1.955540e-01	3.325478e+00
4.275000000000000e+00	-2.284045e+00	1.849188e-01	3.320436e+00
4.300000000000000e+00	-2.301424e+00	1.742836e-01	3.315393e+00
4.325000000000000e+00	-2.318802e+00	1.636484e-01	3.310350e+00
4.350000000000001e+00	-2.336180e+00	1.530132e-01	3.305308e+00
4.375000000000000e+00	-2.353558e+00	1.423780e-01	3.300265e+00
4.400000000000000e+00	-2.370936e+00	1.317428e-01	3.295223e+00
4.425000000000000e+00	-2.388314e+00	1.211076e-01	3.290180e+00
4.450000000000000e+00	-2.405693e+00	1.104724e-01	3.285138e+00
4.475000000000001e+00	-2.423071e+00	9.983715e-02	3.280095e+00
4.500000000000000e+00	-2.440449e+00	8.920195e-02	3.275053e+00
4.525000000000000e+00	-2.457827e+00	7.856674e-02	3.270010e+00
4.550000000000000e+00	-2.475205e+00	6.793155e-02	3.264967e+00
4.575000000000000e+00	-2.492583e+00	5.729634e-02	3.259925e+00
4.600000000000001e+00	-2.509962e+00	4.666114e-02	3.254882e+00
4.625000000000000e+00	-2.527340e+00	3.602594e-02	3.249840e+00
4.650000000000000e+00	-2.544718e+00	2.539074e-02	3.244797e+00
4.675000000000000e+00	-2.562096e+00	1.475553e-02	3.239755e+00
4.700000000000000e+00	-2.579474e+00	4.120332e-03	3.234712e+00
4.725000000000001e+00	-2.596852e+00	-6.514871e-03	3.229670e+00
4.750000000000000e+00	-2.614230e+00	-1.715007e-02	3.224627e+00
4.775000000000000e+00	-2.631609e+00	-2.778528e-02	3.219584e+00
4.800000000000001e+00	-2.648987e+00	-3.842048e-02	3.214542e+00
4.825000000000000e+00	-2.666365e+00	-4.905568e-02	3.209499e+00
4.850000000000001e+00	-2.683743e+00	-5.969088e-02	3.204457e+00
4.875000000000000e+00	-2.701121e+00	-7.032608e-02	3.199414e+00
4.900000000000000e+00	-2.718499e+00	-8.096129e-02	3.194372e+00
4.925000000000001e+00	-2.735878e+00	-9.159649e-02	3.189329e+00
4.950000000000000e+00	-2.753256e+00	-1.022317e-01	3.184287e+00
4.975000000000001e+00	-2.770634e+00	-1.128669e-01	3.179244e+00
5.000000000000000e+00	-2.788012e+00	-1.235021e-01	3.174201e+00
