time	I(R1)	I(R2)	I(R3)	I(V1)
0.000000000000000e+00	0.000000e+00	0.000000e+00	0.000000e+00	0.000000e+00
7.021850571614370e-06	2.312690e-06	2.630206e-02	6.582785e-03	-3.288716e-02
1.404370114322874e-05	9.244231e-06	5.254673e-02	1.316556e-02	-6.572154e-02
2.106555171484311e-05	2.079462e-05	7.873402e-02	1.974832e-02	-9.850313e-02
2.808740228645748e-05	3.696386e-05	1.048639e-01	2.633108e-02	-1.312320e-01
3.510925285807185e-05	5.775196e-05	1.309364e-01	3.291382e-02	-1.639080e-01
4.213110342968622e-05	8.315890e-05	1.569515e-01	3.949656e-02	-1.965312e-01
4.915295400130057e-05	1.131847e-04	1.829093e-01	4.607928e-02	-2.291017e-01
9.830495487760403e-05	4.524785e-04	3.630255e-01	9.215655e-02	-4.556346e-01
1.959612048776040e-04	1.795983e-03	7.127687e-01	1.836962e-01	-8.982609e-01
2.936174548776040e-04	4.027886e-03	1.051930e+00	2.752183e-01	-1.331176e+00
3.912737048776040e-04	7.145266e-03	1.380793e+00	3.667141e-01	-1.754652e+00
4.889299548776040e-04	1.114513e-02	1.699633e+00	4.581750e-01	-2.168953e+00
5.865862048776040e-04	1.602439e-02	2.008717e+00	5.495922e-01	-2.574333e+00
6.842424548776040e-04	2.177991e-02	2.308303e+00	6.409570e-01	-2.971040e+00
7.818987048776039e-04	2.840846e-02	2.598644e+00	7.322606e-01	-3.359313e+00
8.795549548776039e-04	3.590675e-02	2.879982e+00	8.234945e-01	-3.739383e+00
9.772112048776040e-04	4.427139e-02	3.152554e+00	9.146498e-01	-4.111475e+00
1.074867454877604e-03	5.349894e-02	3.416589e+00	1.005718e+00	-4.475806e+00
1.172523704877604e-03	6.358587e-02	3.672310e+00	1.096690e+00	-4.832586e+00
1.270179954877604e-03	7.452860e-02	3.919932e+00	1.187558e+00	-5.182018e+00
1.367836204877604e-03	8.632343e-02	4.159665e+00	1.278312e+00	-5.524300e+00
1.465492454877604e-03	9.896665e-02	4.391711e+00	1.368944e+00	-5.859622e+00
1.563148704877605e-03	1.124544e-01	4.616268e+00	1.459446e+00	-6.188168e+00
1.660804954877605e-03	1.267828e-01	4.833526e+00	1.549809e+00	-6.510118e+00
1.758461204877605e-03	1.419480e-01	5.043672e+00	1.640024e+00	-6.825644e+00
1.856117454877605e-03	1.579458e-01	5.246884e+00	1.730083e+00	-7.134913e+00
2.051429954877605e-03	1.924230e-01	5.633204e+00	1.909696e+00	-7.735323e+00
2.246742454877605e-03	2.301806e-01	5.993821e+00	2.088581e+00	-8.312582e+00
2.442054954877605e-03	2.711840e-01	6.329991e+00	2.266670e+00	-8.867845e+00
2.637367454877605e-03	3.153971e-01	6.642899e+00	2.443894e+00	-9.402189e+00
2.930336204877606e-03	3.876537e-01	7.071065e+00	2.707961e+00	-1.016668e+01
3.223304954877606e-03	4.669191e-01	7.452881e+00	2.969704e+00	-1.088950e+01
3.516273704877606e-03	5.530584e-01	7.791542e+00	3.228898e+00	-1.157350e+01
3.976653169163319e-03	7.035790e-01	8.225271e+00	3.632533e+00	-1.256138e+01
4.437032633449032e-03	8.685716e-01	8.588848e+00	4.026444e+00	-1.348386e+01
4.897412097734745e-03	1.048036e+00	8.882271e+00	4.410632e+00	-1.434094e+01
5.357791562020459e-03	1.241973e+00	9.105542e+00	4.785097e+00	-1.513261e+01
5.818171026306171e-03	1.450382e+00	9.258661e+00	5.149839e+00	-1.585888e+01
6.278550490591884e-03	1.673262e+00	9.341627e+00	5.504857e+00	-1.651975e+01
6.738929954877597e-03	1.910615e+00	9.354440e+00	5.850153e+00	-1.711521e+01
7.366720133449023e-03	2.256461e+00	9.296154e+00	6.301963e+00	-1.785458e+01
7.994510312020449e-03	2.617626e+00	9.173626e+00	6.725111e+00	-1.851636e+01
8.622300490591876e-03	2.994111e+00	8.986855e+00	7.119598e+00	-1.910056e+01
9.250090669163304e-03	3.385916e+00	8.735842e+00	7.485424e+00	-1.960718e+01
9.877880847734728e-03	3.793042e+00	8.420586e+00	7.822588e+00	-2.003622e+01
1.050567102630616e-02	4.215486e+00	8.041087e+00	8.131092e+00	-2.038766e+01
1.113346120487758e-02	4.653251e+00	7.597345e+00	8.410933e+00	-2.066153e+01
1.177520227630615e-02	5.109307e+00	7.104269e+00	8.660765e+00	-2.087434e+01
1.241694334773472e-02	5.565056e+00	6.580000e+00	8.873212e+00	-2.101827e+01
1.305868441916329e-02	6.020500e+00	6.024538e+00	9.048274e+00	-2.109331e+01
1.370042549059186e-02	6.475638e+00	5.437882e+00	9.185952e+00	-2.109947e+01
1.434216656202043e-02	6.930469e+00	4.820034e+00	9.286245e+00	-2.103675e+01
1.498390763344900e-02	7.384995e+00	4.170992e+00	9.349154e+00	-2.090514e+01
1.562564870487756e-02	7.839215e+00	3.490757e+00	9.374679e+00	-2.070465e+01
1.601627370487757e-02	8.109243e+00	3.071635e+00	9.370405e+00	-2.055128e+01
1.640689870487758e-02	8.374320e+00	2.648561e+00	9.351970e+00	-2.037485e+01
1.679752370487758e-02	8.634446e+00	2.221533e+00	9.319373e+00	-2.017535e+01
1.718814870487759e-02	8.889623e+00	1.790552e+00	9.272616e+00	-1.995279e+01
1.757877370487759e-02	9.139849e+00	1.355618e+00	9.211697e+00	-1.970716e+01
1.796939870487760e-02	9.385125e+00	9.167305e-01	9.136618e+00	-1.943847e+01
1.836002370487760e-02	9.625450e+00	4.738901e-01	9.047377e+00	-1.914672e+01
1.849953263344904e-02	9.709312e+00	3.159783e-01	9.012205e+00	-1.903750e+01
1.863904156202046e-02	9.792257e+00	1.580186e-01	8.975299e+00	-1.892558e+01
1.877855049059189e-02	9.874285e+00	1.105362e-05	8.936657e+00	-1.881096e+01
1.891805941916333e-02	9.955396e+00	-1.580443e-01	8.896281e+00	-1.869363e+01
1.905756834773476e-02	1.003559e+01	-3.161475e-01	8.854170e+00	-1.857361e+01
1.919707727630619e-02	1.011487e+01	-4.742985e-01	8.810324e+00	-1.845089e+01
1.933658620487762e-02	1.019322e+01	-6.324974e-01	8.764744e+00	-1.832547e+01
1.979696566916334e-02	1.044608e+01	-1.156466e+00	8.601241e+00	-1.789085e+01
2.025734513344906e-02	1.068593e+01	-1.675629e+00	8.420576e+00	-1.743088e+01
2.071772459773478e-02	1.091278e+01	-2.189986e+00	8.222750e+00	-1.694554e+01
2.117810406202050e-02	1.112663e+01	-2.699537e+00	8.007763e+00	-1.643485e+01
2.163848352630622e-02	1.132748e+01	-3.204283e+00	7.775615e+00	-1.589881e+01
2.209886299059195e-02	1.151532e+01	-3.704223e+00	7.526306e+00	-1.533741e+01
2.255924245487766e-02	1.169017e+01	-4.199358e+00	7.259835e+00	-1.475065e+01
2.307542549059196e-02	1.186805e+01	-4.744414e+00	6.941726e+00	-1.406537e+01
2.359160852630625e-02	1.202510e+01	-5.273591e+00	6.607479e+00	-1.335899e+01
2.410779156202054e-02	1.216132e+01	-5.786891e+00	6.257094e+00	-1.263153e+01
2.462397459773484e-02	1.227671e+01	-6.284313e+00	5.890572e+00	-1.188297e+01
2.514015763344913e-02	1.237126e+01	-6.765857e+00	5.507912e+00	-1.111332e+01
2.565634066916342e-02	1.244499e+01	-7.231523e+00	5.109114e+00	-1.032258e+01
2.617252370487771e-02	1.249788e+01	-7.681312e+00	4.694179e+00	-9.510742e+00
2.632598352630629e-02	1.250898e+01	-7.810239e+00	4.569025e+00	-9.267768e+00
2.647944334773486e-02	1.251810e+01	-7.937261e+00	4.442870e+00	-9.023707e+00
2.663290316916344e-02	1.252522e+01	-8.062377e+00	4.315715e+00	-8.778559e+00
2.678636299059201e-02	1.253035e+01	-8.185586e+00	4.187558e+00	-8.532325e+00
2.693982281202058e-02	1.253349e+01	-8.306890e+00	4.058400e+00	-8.285004e+00
2.709328263344916e-02	1.253464e+01	-8.426287e+00	3.928242e+00	-8.036596e+00
2.724674245487773e-02	1.253380e+01	-8.543778e+00	3.797082e+00	-7.787101e+00
2.759551477630631e-02	1.252439e+01	-8.803843e+00	3.494943e+00	-7.215488e+00
2.794428709773488e-02	1.250453e+01	-9.052504e+00	3.189493e+00	-6.641516e+00
2.829305941916346e-02	1.247421e+01	-9.289763e+00	2.880734e+00	-6.065185e+00
2.864183174059204e-02	1.243345e+01	-9.515619e+00	2.568664e+00	-5.486496e+00
2.899060406202061e-02	1.238224e+01	-9.730073e+00	2.253285e+00	-4.905449e+00
2.933937638344919e-02	1.232057e+01	-9.933124e+00	1.934596e+00	-4.322043e+00
2.968814870487776e-02	1.224845e+01	-1.012477e+01	1.612596e+00	-3.736279e+00
2.992531388344920e-02	1.219343e+01	-1.024777e+01	1.392831e+00	-3.338487e+00
3.016247906202063e-02	1.213367e+01	-1.036486e+01	1.172593e+00	-2.941401e+00
3.039964424059206e-02	1.206917e+01	-1.047603e+01	9.518813e-01	-2.545021e+00
3.063680941916349e-02	1.199994e+01	-1.058129e+01	7.306972e-01	-2.149347e+00
3.087397459773493e-02	1.192598e+01	-1.068064e+01	5.090402e-01	-1.754378e+00
3.111113977630636e-02	1.184728e+01	-1.077407e+01	2.869103e-01	-1.360115e+00
3.134830495487779e-02	1.176384e+01	-1.086159e+01	6.430750e-02	-9.665580e-01
3.143201031202065e-02	1.173331e+01	-1.089098e+01	-1.417706e-02	-8.281475e-01
3.151571566916350e-02	1.170219e+01	-1.091960e+01	-9.264690e-02	-6.899470e-01
3.159942102630636e-02	1.167051e+01	-1.094745e+01	-1.711020e-01	-5.519565e-01
3.168312638344922e-02	1.163826e+01	-1.097454e+01	-2.495424e-01	-4.141760e-01
3.176683174059208e-02	1.160543e+01	-1.100086e+01	-3.279680e-01	-2.766055e-01
3.185053709773494e-02	1.157203e+01	-1.102641e+01	-4.063789e-01	-1.392449e-01
3.193424245487780e-02	1.153806e+01	-1.105119e+01	-4.847750e-01	-2.094354e-03
3.222721120487780e-02	1.141473e+01	-1.113181e+01	-7.588100e-01	4.758930e-01
3.264573799059210e-02	1.122587e+01	-1.123061e+01	-1.150779e+00	1.155516e+00
3.306426477630638e-02	1.102404e+01	-1.130951e+01	-1.539052e+00	1.824520e+00
3.348279156202068e-02	1.080923e+01	-1.136850e+01	-1.923629e+00	2.482904e+00
3.390131834773497e-02	1.058143e+01	-1.140759e+01	-2.304510e+00	3.130668e+00
3.431984513344926e-02	1.034065e+01	-1.142677e+01	-2.681694e+00	3.767812e+00
3.473837191916355e-02	1.008690e+01	-1.142605e+01	-3.055183e+00	4.394336e+00
3.515689870487784e-02	9.820156e+00	-1.140542e+01	-3.424975e+00	5.010241e+00
3.595209959773499e-02	9.274182e+00	-1.130670e+01	-4.116935e+00	6.149457e+00
3.674730049059215e-02	8.697395e+00	-1.114043e+01	-4.773177e+00	7.216209e+00
3.754250138344931e-02	8.089794e+00	-1.090659e+01	-5.393701e+00	8.210496e+00
3.833770227630646e-02	7.451380e+00	-1.060519e+01	-5.978506e+00	9.132319e+00
3.913290316916362e-02	6.782153e+00	-1.023624e+01	-6.527593e+00	9.981677e+00
3.992810406202077e-02	6.082113e+00	-9.799722e+00	-7.040962e+00	1.075857e+01
4.072330495487792e-02	5.351260e+00	-9.295647e+00	-7.518612e+00	1.146300e+01
4.132319334773507e-02	4.790550e+00	-8.875875e+00	-7.843047e+00	1.192837e+01
4.192308174059223e-02	4.226560e+00	-8.428492e+00	-8.136949e+00	1.233888e+01
4.252297013344938e-02	3.659290e+00	-7.953497e+00	-8.400319e+00	1.269453e+01
4.312285852630653e-02	3.088738e+00	-7.450890e+00	-8.633157e+00	1.299531e+01
4.372274691916368e-02	2.514907e+00	-6.920672e+00	-8.835462e+00	1.324123e+01
4.432263531202083e-02	1.937794e+00	-6.362842e+00	-9.007234e+00	1.343228e+01
4.492252370487798e-02	1.357401e+00	-5.777401e+00	-9.148474e+00	1.356847e+01
4.513178709773513e-02	1.157098e+00	-5.569567e+00	-9.189366e+00	1.360184e+01
4.534105049059228e-02	9.574897e-01	-5.359528e+00	-9.226199e+00	1.362824e+01
4.555031388344942e-02	7.585780e-01	-5.147283e+00	-9.258974e+00	1.364768e+01
4.575957727630656e-02	5.603623e-01	-4.932831e+00	-9.287689e+00	1.366016e+01
4.596884066916371e-02	3.628427e-01	-4.716174e+00	-9.312346e+00	1.366568e+01
4.617810406202086e-02	1.660192e-01	-4.497311e+00	-9.332944e+00	1.366424e+01
4.638736745487800e-02	-3.010832e-02	-4.276242e+00	-9.349483e+00	1.365583e+01
4.668033620487801e-02	-3.027486e-01	-3.963952e+00	-9.365719e+00	1.363242e+01
4.711281388344944e-02	-7.029217e-01	-3.494563e+00	-9.374827e+00	1.357231e+01
4.754529156202088e-02	-1.096095e+00	-3.020878e+00	-9.366540e+00	1.348351e+01
4.797776924059231e-02	-1.482267e+00	-2.542896e+00	-9.340858e+00	1.336602e+01
4.841024691916375e-02	-1.861439e+00	-2.060617e+00	-9.297780e+00	1.321984e+01
4.884272459773518e-02	-2.233611e+00	-1.574042e+00	-9.237306e+00	1.304496e+01
4.927520227630661e-02	-2.598782e+00	-1.083171e+00	-9.159436e+00	1.284139e+01
4.970767995487805e-02	-2.956953e+00	-5.880035e-01	-9.064171e+00	1.260913e+01
4.987509066916376e-02	-3.092608e+00	-3.967241e-01	-9.022791e+00	1.251212e+01
5.004250138344948e-02	-3.226757e+00	-2.054674e-01	-8.978916e+00	1.241114e+01
5.020991209773520e-02	-3.359402e+00	-1.423356e-02	-8.932546e+00	1.230618e+01
5.037732281202092e-02	-3.490543e+00	1.769775e-01	-8.883679e+00	1.219724e+01
5.054473352630663e-02	-3.620178e+00	3.681657e-01	-8.832317e+00	1.208433e+01
5.071214424059235e-02	-3.748309e+00	5.593312e-01	-8.778459e+00	1.196744e+01
5.087955495487807e-02	-3.874934e+00	7.504738e-01	-8.722106e+00	1.184657e+01
5.136783620487807e-02	-4.236380e+00	1.309429e+00	-8.542579e+00	1.146953e+01
5.185611745487808e-02	-4.581469e+00	1.862016e+00	-8.344009e+00	1.106346e+01
5.234439870487809e-02	-4.910201e+00	2.408233e+00	-8.126394e+00	1.062836e+01
5.283267995487809e-02	-5.222575e+00	2.948081e+00	-7.889735e+00	1.016423e+01
5.332096120487810e-02	-5.518593e+00	3.481560e+00	-7.634031e+00	9.671064e+00
5.380924245487811e-02	-5.798253e+00	4.008671e+00	-7.359284e+00	9.148866e+00
5.429752370487811e-02	-6.061556e+00	4.529412e+00	-7.065492e+00	8.597636e+00
5.491136299059241e-02	-6.365919e+00	5.170015e+00	-6.669944e+00	7.865847e+00
5.552520227630670e-02	-6.638050e+00	5.785628e+00	-6.253428e+00	7.105851e+00
5.613904156202100e-02	-6.877951e+00	6.376248e+00	-5.815946e+00	6.317649e+00
5.675288084773529e-02	-7.085621e+00	6.941877e+00	-5.357496e+00	5.501241e+00
5.736672013344959e-02	-7.261060e+00	7.482514e+00	-4.878079e+00	4.656626e+00
5.798055941916389e-02	-7.404269e+00	7.998159e+00	-4.377695e+00	3.783805e+00
5.859439870487818e-02	-7.515246e+00	8.488812e+00	-3.856344e+00	2.882777e+00
5.883156388344961e-02	-7.548459e+00	8.668124e+00	-3.652331e+00	2.532666e+00
5.906872906202104e-02	-7.576574e+00	8.842325e+00	-3.446556e+00	2.180805e+00
5.930589424059247e-02	-7.599589e+00	9.011413e+00	-3.239019e+00	1.827195e+00
5.954305941916390e-02	-7.617505e+00	9.175391e+00	-3.029720e+00	1.471835e+00
5.978022459773533e-02	-7.630322e+00	9.334256e+00	-2.818660e+00	1.114725e+00
6.001738977630677e-02	-7.638040e+00	9.488010e+00	-2.605837e+00	7.558663e-01
6.025455495487820e-02	-7.640658e+00	9.636653e+00	-2.391253e+00	3.952579e-01
6.054752370487820e-02	-7.636846e+00	9.812498e+00	-2.124699e+00	-5.095265e-02
6.084049245487821e-02	-7.625174e+00	9.980234e+00	-1.855740e+00	-4.993203e-01
6.113346120487821e-02	-7.605845e+00	1.013909e+01	-1.585769e+00	-9.474724e-01
6.142642995487822e-02	-7.578859e+00	1.028905e+01	-1.314787e+00	-1.395409e+00
6.171939870487822e-02	-7.544216e+00	1.043014e+01	-1.042795e+00	-1.843130e+00
6.201236745487822e-02	-7.501917e+00	1.056234e+01	-7.697921e-01	-2.290635e+00
6.230533620487822e-02	-7.451960e+00	1.068566e+01	-4.957783e-01	-2.737925e+00
6.259830495487823e-02	-7.394347e+00	1.080010e+01	-2.207536e-01	-3.184999e+00
6.275176477630678e-02	-7.361209e+00	1.085622e+01	-7.682441e-02	-3.418191e+00
6.290522459773536e-02	-7.326053e+00	1.090976e+01	6.703826e-02	-3.650748e+00
6.305868441916392e-02	-7.288879e+00	1.096072e+01	2.108344e-01	-3.882671e+00
6.321214424059247e-02	-7.249687e+00	1.100908e+01	3.545639e-01	-4.113959e+00
6.336560406202103e-02	-7.208477e+00	1.105486e+01	4.982270e-01	-4.344612e+00
6.351906388344961e-02	-7.165248e+00	1.109806e+01	6.418234e-01	-4.574630e+00
6.367252370487816e-02	-7.120002e+00	1.113866e+01	7.853533e-01	-4.804014e+00
6.418870674059242e-02	-6.951857e+00	1.125613e+01	1.269422e+00	-5.573693e+00
6.470488977630667e-02	-6.763384e+00	1.134327e+01	1.746980e+00	-6.326865e+00
6.522107281202093e-02	-6.554583e+00	1.140008e+01	2.218028e+00	-7.063530e+00
6.573725584773520e-02	-6.325454e+00	1.142658e+01	2.682566e+00	-7.783689e+00
6.625343888344945e-02	-6.075998e+00	1.142274e+01	3.140594e+00	-8.487341e+00
6.676962191916370e-02	-5.806214e+00	1.138859e+01	3.592111e+00	-9.174486e+00
6.728580495487796e-02	-5.516102e+00	1.132411e+01	4.037118e+00	-9.845124e+00
6.796939870487792e-02	-5.101177e+00	1.118915e+01	4.611546e+00	-1.069952e+01
6.865299245487788e-02	-4.662904e+00	1.100477e+01	5.158428e+00	-1.150029e+01
6.933658620487784e-02	-4.201283e+00	1.077095e+01	5.677764e+00	-1.224743e+01
7.002017995487780e-02	-3.716315e+00	1.048771e+01	6.169555e+00	-1.294095e+01
7.070377370487776e-02	-3.207998e+00	1.015505e+01	6.633800e+00	-1.358085e+01
7.138736745487773e-02	-2.676334e+00	9.772953e+00	7.070500e+00	-1.416712e+01
7.207096120487769e-02	-2.121323e+00	9.341432e+00	7.479655e+00	-1.469976e+01
7.240578263344910e-02	-1.846180e+00	9.115076e+00	7.665119e+00	-1.493402e+01
7.274060406202050e-02	-1.568690e+00	8.879196e+00	7.841527e+00	-1.515203e+01
7.307542549059191e-02	-1.288850e+00	8.633792e+00	8.008880e+00	-1.535382e+01
7.341024691916333e-02	-1.006663e+00	8.378864e+00	8.167176e+00	-1.553938e+01
7.374506834773474e-02	-7.221263e-01	8.114411e+00	8.316417e+00	-1.570870e+01
7.407988977630614e-02	-4.352414e-01	7.840434e+00	8.456602e+00	-1.586179e+01
7.441471120487755e-02	-1.460080e-01	7.556933e+00	8.587730e+00	-1.599866e+01
7.461002370487754e-02	2.280263e-02	7.388049e+00	8.659533e+00	-1.607038e+01
7.490299245487753e-02	2.771958e-01	7.128873e+00	8.761212e+00	-1.616728e+01
7.519596120487751e-02	5.315617e-01	6.864161e+00	8.855191e+00	-1.625091e+01
7.548892995487749e-02	7.859003e-01	6.593912e+00	8.941468e+00	-1.632128e+01
7.578189870487748e-02	1.040212e+00	6.318128e+00	9.020045e+00	-1.637838e+01
7.607486745487746e-02	1.294496e+00	6.036808e+00	9.090920e+00	-1.642222e+01
7.636783620487744e-02	1.548753e+00	5.749952e+00	9.154095e+00	-1.645280e+01
7.666080495487743e-02	1.802982e+00	5.457560e+00	9.209568e+00	-1.647011e+01
7.720488977630596e-02	2.275207e+00	4.899083e+00	9.291376e+00	-1.646567e+01
7.774897459773451e-02	2.739711e+00	4.330405e+00	9.345528e+00	-1.641564e+01
7.829305941916305e-02	3.196492e+00	3.751525e+00	9.372025e+00	-1.632004e+01
7.883714424059159e-02	3.645552e+00	3.162444e+00	9.370867e+00	-1.617886e+01
7.938122906202014e-02	4.086889e+00	2.563161e+00	9.342053e+00	-1.599210e+01
7.992531388344867e-02	4.520505e+00	1.953676e+00	9.285585e+00	-1.575977e+01
8.046939870487721e-02	4.946399e+00	1.333990e+00	9.201461e+00	-1.548185e+01
8.164127370487714e-02	5.812631e+00	-2.239327e-03	8.928435e+00	-1.473883e+01
8.190634066916284e-02	5.999639e+00	-3.056647e-01	8.849363e+00	-1.454334e+01
8.217140763344855e-02	6.182617e+00	-6.083454e-01	8.764236e+00	-1.433851e+01
8.243647459773425e-02	6.361565e+00	-9.102812e-01	8.673053e+00	-1.412434e+01
8.270154156201993e-02	6.536485e+00	-1.211472e+00	8.575816e+00	-1.390083e+01
8.296660852630564e-02	6.707375e+00	-1.511919e+00	8.472524e+00	-1.366798e+01
8.323167549059134e-02	6.874235e+00	-1.811620e+00	8.363178e+00	-1.342579e+01
8.349674245487704e-02	7.037066e+00	-2.110577e+00	8.247776e+00	-1.317427e+01
8.412453263344843e-02	7.407015e+00	-2.817636e+00	7.948251e+00	-1.253763e+01
8.475232281201982e-02	7.747313e+00	-3.507012e+00	7.620959e+00	-1.186126e+01
8.538011299059121e-02	8.057959e+00	-4.178703e+00	7.265902e+00	-1.114516e+01
8.600790316916261e-02	8.338954e+00	-4.832710e+00	6.883078e+00	-1.038932e+01
8.663569334773401e-02	8.590298e+00	-5.469032e+00	6.472487e+00	-9.593753e+00
8.726348352630539e-02	8.811991e+00	-6.087671e+00	6.034131e+00	-8.758451e+00
8.789127370487679e-02	9.004032e+00	-6.688625e+00	5.568007e+00	-7.883415e+00
8.829584959773391e-02	9.108818e+00	-7.059351e+00	5.257046e+00	-7.306513e+00
8.870042549059103e-02	9.199337e+00	-7.417123e+00	4.938818e+00	-6.721032e+00
8.910500138344815e-02	9.275588e+00	-7.761942e+00	4.613325e+00	-6.126971e+00
8.950957727630526e-02	9.337573e+00	-8.093807e+00	4.280565e+00	-5.524331e+00
8.991415316916239e-02	9.385290e+00	-8.412718e+00	3.940539e+00	-4.913111e+00
9.031872906201951e-02	9.418740e+00	-8.718676e+00	3.593248e+00	-4.293312e+00
9.072330495487663e-02	9.437923e+00	-9.011681e+00	3.238690e+00	-3.664933e+00
9.086281388344805e-02	9.441079e+00	-9.108905e+00	3.115585e+00	-3.447759e+00
9.100232281201946e-02	9.442503e+00	-9.204311e+00	2.991934e+00	-3.230126e+00
9.114183174059089e-02	9.442195e+00	-9.297899e+00	2.867737e+00	-3.012033e+00
9.128134066916231e-02	9.440156e+00	-9.389669e+00	2.742994e+00	-2.793481e+00
9.142084959773374e-02	9.436385e+00	-9.479621e+00	2.617705e+00	-2.574469e+00
9.156035852630515e-02	9.430882e+00	-9.567754e+00	2.491871e+00	-2.354998e+00
9.169986745487657e-02	9.423647e+00	-9.654070e+00	2.365490e+00	-2.135067e+00
9.306705495487649e-02	9.261494e+00	-1.039767e+01	1.107050e+00	2.912383e-02
9.323446566916220e-02	9.230306e+00	-1.047568e+01	9.509480e-01	2.944221e-01
9.340187638344791e-02	9.196698e+00	-1.055070e+01	7.946890e-01	5.593120e-01
9.356928709773361e-02	9.160669e+00	-1.062274e+01	6.382731e-01	8.237936e-01
9.373669781201931e-02	9.122220e+00	-1.069179e+01	4.817002e-01	1.087867e+00
9.390410852630501e-02	9.081351e+00	-1.075785e+01	3.249706e-01	1.351532e+00
9.407151924059072e-02	9.038060e+00	-1.082093e+01	1.680840e-01	1.614788e+00
