Freq.	V(n002)
1.00000000000000e+00	1.77652872907500e-07,9.42477762590160e-04
1.00230523807790e+00	1.78472881281925e-07,9.44650398061133e-04
1.00461579027839e+00	1.79296674642763e-07,9.46828041973048e-04
1.00693166885180e+00	1.80124270460713e-07,9.49010705871548e-04
1.00925288607668e+00	1.80955686287119e-07,9.51198401328889e-04
1.01157945425990e+00	1.81790939754335e-07,9.53391139944005e-04
1.01391138573668e+00	1.82630048576104e-07,9.55588933342568e-04
1.01624869287070e+00	1.83473030547932e-07,9.57791793177048e-04
1.01859138805412e+00	1.84319903547463e-07,9.59999731126780e-04
1.02093948370768e+00	1.85170685534864e-07,9.62212758898020e-04
1.02329299228075e+00	1.86025394553201e-07,9.64430888224011e-04
1.02565192625141e+00	1.86884048728820e-07,9.66654130865044e-04
1.02801629812647e+00	1.87746666271739e-07,9.68882498608517e-04
1.03038612044162e+00	1.88613265476027e-07,9.71116003269007e-04
1.03276140576140e+00	1.89483864720194e-07,9.73354656688320e-04
1.03514216667934e+00	1.90358482467584e-07,9.75598470735564e-04
1.03752841581801e+00	1.91237137266762e-07,9.77847457307205e-04
1.03992016582906e+00	1.92119847751909e-07,9.80101628327138e-04
1.04231742939330e+00	1.93006632643218e-07,9.82360995746741e-04
1.04472021922080e+00	1.93897510747290e-07,9.84625571544943e-04
1.04712854805090e+00	1.94792500957535e-07,9.86895367728290e-04
1.04954242865232e+00	1.95691622254569e-07,9.89170396331003e-04
1.05196187382322e+00	1.96594893706619e-07,9.91450669415046e-04
1.05438689639126e+00	1.97502334469928e-07,9.93736199070190e-04
1.05681750921366e+00	1.98413963789159e-07,9.96026997414072e-04
1.05925372517729e+00	1.99329800997804e-07,9.98323076592267e-04
1.06169555719872e+00	2.00249865518595e-07,1.00062444877835e-03
1.06414301822431e+00	2.01174176863916e-07,1.00293112617394e-03
1.06659612123026e+00	2.02102754636215e-07,1.00524312100882e-03
1.06905487922266e+00	2.03035618528421e-07,1.00756044554093e-03
1.07151930523760e+00	2.03972788324361e-07,1.00988311205649e-03
1.07398941234124e+00	2.04914283899181e-07,1.01221113287004e-03
1.07646521362983e+00	2.05860125219765e-07,1.01454452032448e-03
1.07894672222983e+00	2.06810332345161e-07,1.01688328679121e-03
1.08143395129794e+00	2.07764925427005e-07,1.01922744467011e-03
1.08392691402120e+00	2.08723924709949e-07,1.02157700638966e-03
1.08642562361706e+00	2.09687350532090e-07,1.02393198440700e-03
1.08893009333343e+00	2.10655223325401e-07,1.02629239120797e-03
1.09144033644875e+00	2.11627563616165e-07,1.02865823930720e-03
1.09395636627209e+00	2.12604392025409e-07,1.03102954124817e-03
1.09647819614318e+00	2.13585729269344e-07,1.03340630960327e-03
1.09900583943252e+00	2.14571596159802e-07,1.03578855697388e-03
1.10153930954141e+00	2.15562013604676e-07,1.03817629599043e-03
1.10407861990207e+00	2.16557002608370e-07,1.04056953931244e-03
1.10662378397766e+00	2.17556584272235e-07,1.04296829962866e-03
1.10917481526240e+00	2.18560779795024e-07,1.04537258965706e-03
1.11173172728159e+00	2.19569610473338e-07,1.04778242214492e-03
1.11429453359173e+00	2.20583097702081e-07,1.05019780986893e-03
1.11686324778056e+00	2.21601262974907e-07,1.05261876563522e-03
1.11943788346715e+00	2.22624127884684e-07,1.05504530227944e-03
1.12201845430196e+00	2.23651714123946e-07,1.05747743266683e-03
1.12460497396692e+00	2.24684043485356e-07,1.05991516969230e-03
1.12719745617551e+00	2.25721137862167e-07,1.06235852628047e-03
1.12979591467279e+00	2.26763019248687e-07,1.06480751538575e-03
1.13240036323555e+00	2.27809709740746e-07,1.06726214999243e-03
1.13501081567231e+00	2.28861231536161e-07,1.06972244311473e-03
1.13762728582343e+00	2.29917606935211e-07,1.07218840779685e-03
1.14024978756117e+00	2.30978858341109e-07,1.07466005711309e-03
1.14287833478977e+00	2.32045008260476e-07,1.07713740416787e-03
1.14551294144553e+00	2.33116079303818e-07,1.07962046209582e-03
1.14815362149688e+00	2.34192094186007e-07,1.08210924406185e-03
1.15080038894443e+00	2.35273075726763e-07,1.08460376326122e-03
1.15345325782109e+00	2.36359046851134e-07,1.08710403291961e-03
1.15611224219210e+00	2.37450030589990e-07,1.08961006629318e-03
1.15877735615512e+00	2.38546050080502e-07,1.09212187666867e-03
1.16144861384034e+00	2.39647128566639e-07,1.09463947736341e-03
1.16412602941049e+00	2.40753289399659e-07,1.09716288172548e-03
1.16680961706096e+00	2.41864556038607e-07,1.09969210313368e-03
1.16949939101987e+00	2.42980952050805e-07,1.10222715499768e-03
1.17219536554813e+00	2.44102501112362e-07,1.10476805075807e-03
1.17489755493953e+00	2.45229227008667e-07,1.10731480388639e-03
1.17760597352080e+00	2.46361153634900e-07,1.10986742788528e-03
1.18032063565173e+00	2.47498304996533e-07,1.11242593628846e-03
1.18304155572516e+00	2.48640705209846e-07,1.11499034266088e-03
1.18576874816716e+00	2.49788378502432e-07,1.11756066059875e-03
1.18850222743701e+00	2.50941349213714e-07,1.12013690372963e-03
1.19124200802737e+00	2.52099641795461e-07,1.12271908571248e-03
1.19398810446427e+00	2.53263280812306e-07,1.12530722023776e-03
1.19674053130724e+00	2.54432290942267e-07,1.12790132102748e-03
1.19949930314937e+00	2.55606696977271e-07,1.13050140183530e-03
1.20226443461741e+00	2.56786523823678e-07,1.13310747644655e-03
1.20503594037179e+00	2.57971796502813e-07,1.13571955867838e-03
1.20781383510677e+00	2.59162540151492e-07,1.13833766237977e-03
1.21059813355048e+00	2.60358780022556e-07,1.14096180143162e-03
1.21338885046497e+00	2.61560541485413e-07,1.14359198974684e-03
1.21618600064636e+00	2.62767850026565e-07,1.14622824127042e-03
1.21898959892486e+00	2.63980731250157e-07,1.14887056997947e-03
1.22179966016487e+00	2.65199210878517e-07,1.15151898988335e-03
1.22461619926504e+00	2.66423314752702e-07,1.15417351502368e-03
1.22743923115840e+00	2.67653068833046e-07,1.15683415947450e-03
1.23026877081238e+00	2.68888499199709e-07,1.15950093734223e-03
1.23310483322890e+00	2.70129632053234e-07,1.16217386276587e-03
1.23594743344450e+00	2.71376493715098e-07,1.16485294991698e-03
1.23879658653036e+00	2.72629110628273e-07,1.16753821299979e-03
1.24165230759240e+00	2.73887509357787e-07,1.17022966625127e-03
1.24451461177138e+00	2.75151716591284e-07,1.17292732394124e-03
1.24738351424294e+00	2.76421759139597e-07,1.17563120037238e-03
1.25025903021771e+00	2.77697663937307e-07,1.17834130988035e-03
1.25314117494141e+00	2.78979458043323e-07,1.18105766683387e-03
1.25602996369487e+00	2.80267168641451e-07,1.18378028563478e-03
1.25892541179416e+00	2.81560823040971e-07,1.18650918071811e-03
1.26182753459066e+00	2.82860448677217e-07,1.18924436655216e-03
1.26473634747114e+00	2.84166073112161e-07,1.19198585763861e-03
1.26765186585784e+00	2.85477724034993e-07,1.19473366851254e-03
1.27057410520853e+00	2.86795429262710e-07,1.19748781374256e-03
1.27350308101665e+00	2.88119216740707e-07,1.20024830793084e-03
1.27643880881134e+00	2.89449114543370e-07,1.20301516571324e-03
1.27938130415752e+00	2.90785150874669e-07,1.20578840175934e-03
1.28233058265601e+00	2.92127354068759e-07,1.20856803077254e-03
1.28528665994361e+00	2.93475752590578e-07,1.21135406749013e-03
1.28824955169313e+00	2.94830375036454e-07,1.21414652668338e-03
1.29121927361353e+00	2.96191250134707e-07,1.21694542315762e-03
1.29419584144998e+00	2.97558406746263e-07,1.21975077175229e-03
1.29717927098395e+00	2.98931873865262e-07,1.22256258734105e-03
1.30016957803328e+00	3.00311680619677e-07,1.22538088483185e-03
1.30316677845229e+00	3.01697856271929e-07,1.22820567916699e-03
1.30617088813183e+00	3.03090430219506e-07,1.23103698532324e-03
1.30918192299940e+00	3.04489431995592e-07,1.23387481831187e-03
1.31219989901919e+00	3.05894891269687e-07,1.23671919317877e-03
1.31522483219223e+00	3.07306837848240e-07,1.23957012500451e-03
1.31825673855640e+00	3.08725301675281e-07,1.24242762890443e-03
1.32129563418657e+00	3.10150312833055e-07,1.24529172002871e-03
1.32434153519466e+00	3.11581901542659e-07,1.24816241356244e-03
1.32739445772973e+00	3.13020098164687e-07,1.25103972472574e-03
1.33045441797808e+00	3.14464933199867e-07,1.25392366877380e-03
1.33352143216332e+00	3.15916437289717e-07,1.25681426099698e-03
1.33659551654643e+00	3.17374641217185e-07,1.25971151672090e-03
1.33967668742593e+00	3.18839575907308e-07,1.26261545130648e-03
1.34276496113785e+00	3.20311272427868e-07,1.26552608015008e-03
1.34586035405594e+00	3.21789761990049e-07,1.26844341868354e-03
1.34896288259164e+00	3.23275075949097e-07,1.27136748237428e-03
1.35207256319427e+00	3.24767245804988e-07,1.27429828672536e-03
1.35518941235103e+00	3.26266303203097e-07,1.27723584727559e-03
1.35831344658714e+00	3.27772279934867e-07,1.28018017959960e-03
1.36144468246594e+00	3.29285207938481e-07,1.28313129930793e-03
1.36458313658891e+00	3.30805119299543e-07,1.28608922204709e-03
1.36772882559584e+00	3.32332046251760e-07,1.28905396349967e-03
1.37088176616484e+00	3.33866021177620e-07,1.29202553938441e-03
1.37404197501251e+00	3.35407076609082e-07,1.29500396545628e-03
1.37720946889394e+00	3.36955245228266e-07,1.29798925750658e-03
1.38038426460287e+00	3.38510559868147e-07,1.30098143136301e-03
1.38356637897177e+00	3.40073053513248e-07,1.30398050288973e-03
1.38675582887188e+00	3.41642759300343e-07,1.30698648798751e-03
1.38995263121334e+00	3.43219710519157e-07,1.30999940259376e-03
1.39315680294529e+00	3.44803940613075e-07,1.31301926268262e-03
1.39636836105593e+00	3.46395483179849e-07,1.31604608426507e-03
1.39958732257261e+00	3.47994371972309e-07,1.31907988338897e-03
1.40281370456195e+00	3.49600640899085e-07,1.32212067613922e-03
1.40604752412990e+00	3.51214324025318e-07,1.32516847863775e-03
1.40928879842186e+00	3.52835455573388e-07,1.32822330704369e-03
1.41253754462274e+00	3.54464069923640e-07,1.33128517755341e-03
1.41579377995707e+00	3.56100201615109e-07,1.33435410640062e-03
1.41905752168908e+00	3.57743885346254e-07,1.33743010985643e-03
1.42232878712281e+00	3.59395155975699e-07,1.34051320422949e-03
1.42560759360218e+00	3.61054048522964e-07,1.34360340586603e-03
1.42889395851109e+00	3.62720598169213e-07,1.34670073114996e-03
1.43218789927353e+00	3.64394840257999e-07,1.34980519650296e-03
1.43548943335364e+00	3.66076810296013e-07,1.35291681838457e-03
1.43879857825583e+00	3.67766543953838e-07,1.35603561329228e-03
1.44211535152486e+00	3.69464077066704e-07,1.35916159776158e-03
1.44543977074592e+00	3.71169445635248e-07,1.36229478836612e-03
1.44877185354475e+00	3.72882685826281e-07,1.36543520171772e-03
1.45211161758773e+00	3.74603833973550e-07,1.36858285446652e-03
1.45545908058195e+00	3.76332926578512e-07,1.37173776330102e-03
1.45881426027534e+00	3.78070000311106e-07,1.37489994494821e-03
1.46217717445671e+00	3.79815092010532e-07,1.37806941617364e-03
1.46554784095590e+00	3.81568238686033e-07,1.38124619378149e-03
1.46892627764385e+00	3.83329477517677e-07,1.38443029461468e-03
1.47231250243271e+00	3.85098845857149e-07,1.38762173555498e-03
1.47570653327588e+00	3.86876381228541e-07,1.39082053352306e-03
1.47910838816819e+00	3.88662121329146e-07,1.39402670547859e-03
1.48251808514594e+00	3.90456104030263e-07,1.39724026842034e-03
1.48593564228699e+00	3.92258367377995e-07,1.40046123938628e-03
1.48936107771090e+00	3.94068949594059e-07,1.40368963545363e-03
1.49279440957898e+00	3.95887889076594e-07,1.40692547373901e-03
1.49623565609442e+00	3.97715224400976e-07,1.41016877139847e-03
1.49968483550236e+00	3.99550994320639e-07,1.41341954562762e-03
1.50314196609001e+00	4.01395237767893e-07,1.41667781366171e-03
1.50660706618673e+00	4.03247993854752e-07,1.41994359277572e-03
1.51008015416413e+00	4.05109301873762e-07,1.42321690028445e-03
1.51356124843619e+00	4.06979201298837e-07,1.42649775354261e-03
1.51705036745932e+00	4.08857731786090e-07,1.42978616994494e-03
1.52054752973248e+00	4.10744933174684e-07,1.43308216692624e-03
1.52405275379728e+00	4.12640845487665e-07,1.43638576196155e-03
1.52756605823806e+00	4.14545508932822e-07,1.43969697256615e-03
1.53108746168201e+00	4.16458963903531e-07,1.44301581629571e-03
1.53461698279928e+00	4.18381250979618e-07,1.44634231074639e-03
1.53815464030302e+00	4.20312410928214e-07,1.44967647355489e-03
1.54170045294954e+00	4.22252484704625e-07,1.45301832239857e-03
1.54525443953840e+00	4.24201513453197e-07,1.45636787499555e-03
1.54881661891247e+00	4.26159538508188e-07,1.45972514910479e-03
1.55238700995807e+00	4.28126601394649e-07,1.46309016252617e-03
1.55596563160506e+00	4.30102743829300e-07,1.46646293310064e-03
1.55955250282694e+00	4.32088007721417e-07,1.46984347871025e-03
1.56314764264094e+00	4.34082435173719e-07,1.47323181727827e-03
1.56675107010813e+00	4.36086068483264e-07,1.47662796676931e-03
1.57036280433354e+00	4.38098950142345e-07,1.48003194518937e-03
1.57398286446620e+00	4.40121122839387e-07,1.48344377058597e-03
1.57761126969933e+00	4.42152629459858e-07,1.48686346104824e-03
1.58124803927037e+00	4.44193513087176e-07,1.49029103470698e-03
1.58489319246110e+00	4.46243817003623e-07,1.49372650973482e-03
1.58854674859776e+00	4.48303584691262e-07,1.49716990434627e-03
1.59220872705115e+00	4.50372859832860e-07,1.50062123679781e-03
1.59587914723672e+00	4.52451686312816e-07,1.50408052538804e-03
1.59955802861465e+00	4.54540108218088e-07,1.50754778845771e-03
1.60324539069002e+00	4.56638169839130e-07,1.51102304438987e-03
1.60694125301286e+00	4.58745915670834e-07,1.51450631160994e-03
1.61064563517825e+00	4.60863390413467e-07,1.51799760858582e-03
1.61435855682647e+00	4.62990638973627e-07,1.52149695382797e-03
1.61808003764305e+00	4.65127706465188e-07,1.52500436588954e-03
1.62181009735891e+00	4.67274638210260e-07,1.52851986336643e-03
1.62554875575047e+00	4.69431479740154e-07,1.53204346489741e-03
1.62929603263970e+00	4.71598276796340e-07,1.53557518916423e-03
1.63305194789432e+00	4.73775075331421e-07,1.53911505489170e-03
1.63681652142779e+00	4.75961921510111e-07,1.54266308084779e-03
1.64058977319952e+00	4.78158861710206e-07,1.54621928584374e-03
1.64437172321491e+00	4.80365942523575e-07,1.54978368873415e-03
1.64816239152549e+00	4.82583210757144e-07,1.55335630841709e-03
1.65196179822900e+00	4.84810713433891e-07,1.55693716383418e-03
1.65576996346951e+00	4.87048497793839e-07,1.56052627397073e-03
1.65958690743754e+00	4.89296611295063e-07,1.56412365785578e-03
1.66341265037015e+00	4.91555101614696e-07,1.56772933456227e-03
1.66724721255104e+00	4.93824016649935e-07,1.57134332320710e-03
1.67109061431069e+00	4.96103404519064e-07,1.57496564295121e-03
1.67494287602642e+00	4.98393313562467e-07,1.57859631299976e-03
1.67880401812254e+00	5.00693792343658e-07,1.58223535260214e-03
1.68267406107045e+00	5.03004889650312e-07,1.58588278105213e-03
1.68655302538872e+00	5.05326654495295e-07,1.58953861768799e-03
1.69044093164324e+00	5.07659136117708e-07,1.59320288189255e-03
1.69433780044731e+00	5.10002383983925e-07,1.59687559309334e-03
1.69824365246172e+00	5.12356447788653e-07,1.60055677076264e-03
1.70215850839493e+00	5.14721377455973e-07,1.60424643441766e-03
1.70608238900310e+00	5.17097223140408e-07,1.60794460362057e-03
1.71001531509027e+00	5.19484035227982e-07,1.61165129797864e-03
1.71395730750840e+00	5.21881864337292e-07,1.61536653714437e-03
1.71790838715757e+00	5.24290761320578e-07,1.61909034081551e-03
1.72186857498599e+00	5.26710777264804e-07,1.62282272873527e-03
1.72583789199018e+00	5.29141963492740e-07,1.62656372069233e-03
1.72981635921508e+00	5.31584371564052e-07,1.63031333652103e-03
1.73380399775412e+00	5.34038053276392e-07,1.63407159610138e-03
1.73780082874935e+00	5.36503060666501e-07,1.63783851935927e-03
1.74180687339159e+00	5.38979446011311e-07,1.64161412626650e-03
1.74582215292048e+00	5.41467261829051e-07,1.64539843684089e-03
1.74984668862463e+00	5.43966560880363e-07,1.64919147114645e-03
1.75388050184174e+00	5.46477396169424e-07,1.65299324929341e-03
1.75792361395867e+00	5.48999820945063e-07,1.65680379143836e-03
1.76197604641161e+00	5.51533888701897e-07,1.66062311778436e-03
1.76603782068614e+00	5.54079653181461e-07,1.66445124858106e-03
1.77010895831740e+00	5.56637168373351e-07,1.66828820412476e-03
1.77418948089014e+00	5.59206488516366e-07,1.67213400475857e-03
1.77827941003890e+00	5.61787668099660e-07,1.67598867087248e-03
1.78237876744807e+00	5.64380761863899e-07,1.67985222290351e-03
1.78648757485203e+00	5.66985824802416e-07,1.68372468133575e-03
1.79060585403527e+00	5.69602912162387e-07,1.68760606670054e-03
1.79473362683250e+00	5.72232079445993e-07,1.69149639957654e-03
1.79887091512876e+00	5.74873382411602e-07,1.69539570058987e-03
1.80301774085954e+00	5.77526877074953e-07,1.69930399041416e-03
1.80717412601090e+00	5.80192619710339e-07,1.70322128977071e-03
1.81134009261958e+00	5.82870666851803e-07,1.70714761942862e-03
1.81551566277311e+00	5.85561075294339e-07,1.71108300020482e-03
1.81970085860996e+00	5.88263902095094e-07,1.71502745296425e-03
1.82389570231961e+00	5.90979204574578e-07,1.71898099861996e-03
1.82810021614272e+00	5.93707040317880e-07,1.72294365813318e-03
1.83231442237119e+00	5.96447467175890e-07,1.72691545251349e-03
1.83653834334832e+00	5.99200543266525e-07,1.73089640281888e-03
1.84077200146893e+00	6.01966326975961e-07,1.73488653015589e-03
1.84501541917945e+00	6.04744876959876e-07,1.73888585567973e-03
1.84926861897805e+00	6.07536252144684e-07,1.74289440059435e-03
1.85353162341478e+00	6.10340511728795e-07,1.74691218615259e-03
1.85780445509167e+00	6.13157715183865e-07,1.75093923365631e-03
1.86208713666284e+00	6.15987922256059e-07,1.75497556445643e-03
1.86637969083464e+00	6.18831192967316e-07,1.75902119995313e-03
1.87068214036577e+00	6.21687587616626e-07,1.76307616159588e-03
1.87499450806739e+00	6.24557166781302e-07,1.76714047088364e-03
1.87931681680324e+00	6.27439991318273e-07,1.77121414936490e-03
1.88364908948977e+00	6.30336122365369e-07,1.77529721863783e-03
1.88799134909627e+00	6.33245621342619e-07,1.77938970035040e-03
1.89234361864495e+00	6.36168549953553e-07,1.78349161620046e-03
1.89670592121112e+00	6.39104970186513e-07,1.78760298793591e-03
1.90107827992327e+00	6.42054944315965e-07,1.79172383735476e-03
1.90546071796322e+00	6.45018534903820e-07,1.79585418630528e-03
1.90985325856621e+00	6.47995804800762e-07,1.79999405668609e-03
1.91425592502106e+00	6.50986817147580e-07,1.80414347044631e-03
1.91866874067026e+00	6.53991635376508e-07,1.80830244958565e-03
1.92309172891013e+00	6.57010323212569e-07,1.81247101615454e-03
1.92752491319091e+00	6.60042944674926e-07,1.81664919225423e-03
1.93196831701689e+00	6.63089564078244e-07,1.82083700003692e-03
1.93642196394658e+00	6.66150246034046e-07,1.82503446170588e-03
1.94088587759275e+00	6.69225055452093e-07,1.82924159951557e-03
1.94536008162263e+00	6.72314057541751e-07,1.83345843577174e-03
1.94984459975802e+00	6.75417317813381e-07,1.83768499283157e-03
1.95433945577536e+00	6.78534902079726e-07,1.84192129310376e-03
1.95884467350596e+00	6.81666876457305e-07,1.84616735904868e-03
1.96336027683602e+00	6.84813307367816e-07,1.85042321317849e-03
1.96788628970681e+00	6.87974261539549e-07,1.85468887805722e-03
1.97242273611482e+00	6.91149806008794e-07,1.85896437630093e-03
1.97696964011183e+00	6.94340008121267e-07,1.86324973057781e-03
1.98152702580507e+00	6.97544935533538e-07,1.86754496360831e-03
1.98609491735734e+00	7.00764656214464e-07,1.87185009816524e-03
1.99067333898715e+00	7.03999238446633e-07,1.87616515707393e-03
1.99526231496885e+00	7.07248750827809e-07,1.88049016321231e-03
1.99986186963271e+00	7.10513262272391e-07,1.88482513951105e-03
2.00447202736513e+00	7.13792842012871e-07,1.88917010895370e-03
2.00909281260870e+00	7.17087559601302e-07,1.89352509457676e-03
2.01372424986236e+00	7.20397484910775e-07,1.89789011946986e-03
2.01836636368153e+00	7.23722688136901e-07,1.90226520677585e-03
2.02301917867824e+00	7.27063239799299e-07,1.90665037969092e-03
2.02768271952125e+00	7.30419210743090e-07,1.91104566146475e-03
2.03235701093619e+00	7.33790672140401e-07,1.91545107540058e-03
2.03704207770568e+00	7.37177695491876e-07,1.91986664485542e-03
2.04173794466950e+00	7.40580352628189e-07,1.92429239324009e-03
2.04644463672464e+00	7.43998715711569e-07,1.92872834401938e-03
