time	V(n002)	I(L1)	I(L2)
0.000000000000000e+00	9.995999e-04	9.995999e-01	9.996999e-12
4.800000000000000e+00	9.995999e-04	9.995999e-01	9.996999e-12
4.800000489933949e+00	9.995999e-04	9.995999e-01	9.996999e-12
4.800000503475926e+00	9.995999e-04	9.995999e-01	2.127913e-11
4.800001000000000e+00	9.995978e-04	9.995999e-01	8.484873e-10
4.803737623963066e+00	9.844475e-04	9.995998e-01	6.171026e-06
4.807474247926133e+00	9.699196e-04	9.995996e-01	1.225819e-05
4.811210871889199e+00	9.560140e-04	9.995991e-01	1.826235e-05
4.814947495852266e+00	9.427307e-04	9.995985e-01	2.418350e-05
4.818684119815332e+00	9.300698e-04	9.995978e-01	3.002165e-05
4.822420743778399e+00	9.180313e-04	9.995968e-01	3.577678e-05
4.826157367741465e+00	9.066151e-04	9.995957e-01	4.144890e-05
4.835922992741465e+00	8.789802e-04	9.995922e-01	5.597932e-05
4.845688617741465e+00	8.545248e-04	9.995879e-01	7.008559e-05
4.865219867741465e+00	8.137315e-04	9.995771e-01	9.721521e-05
4.894516742741465e+00	7.685120e-04	9.995566e-01	1.357787e-04
4.923813617741465e+00	7.371722e-04	9.995325e-01	1.724896e-04
4.934697386635541e+00	7.284609e-04	9.995227e-01	1.857363e-04
4.945581155529618e+00	7.205822e-04	9.995127e-01	1.988717e-04
4.956464924423694e+00	7.135361e-04	9.995025e-01	2.118958e-04
4.967348693317771e+00	7.073225e-04	9.994921e-01	2.248086e-04
4.978232462211847e+00	7.019415e-04	9.994814e-01	2.376101e-04
4.989116231105924e+00	6.973931e-04	9.994705e-01	2.503004e-04
5.000000000000000e+00	6.936772e-04	9.994594e-01	2.628793e-04
5.000000300000000e+00	6.936789e-04	9.994594e-01	2.628797e-04
5.000000700000000e+00	-4.998586e+00	9.994561e-01	2.612137e-04
5.000001000000000e+00	-4.998549e+00	9.994511e-01	2.587144e-04
5.000071212857132e+00	-4.989781e+00	9.982820e-01	-3.257067e-04
5.000141425714264e+00	-4.981029e+00	9.971150e-01	-9.091071e-04
5.000211638571396e+00	-4.972292e+00	9.959500e-01	-1.491487e-03
5.000281851428527e+00	-4.963570e+00	9.947871e-01	-2.072845e-03
5.000352064285659e+00	-4.954864e+00	9.936262e-01	-2.653183e-03
5.000422277142791e+00	-4.946173e+00	9.924673e-01	-3.232500e-03
5.000492489999923e+00	-4.937498e+00	9.913105e-01	-3.810796e-03
5.000984009999846e+00	-4.877188e+00	9.832687e-01	-7.830887e-03
5.001967049999693e+00	-4.758766e+00	9.674779e-01	-1.572464e-02
5.003933129999385e+00	-4.530444e+00	9.370328e-01	-3.094400e-02
5.007865289998771e+00	-4.105892e+00	8.804218e-01	-5.924325e-02
5.015729609997542e+00	-3.370800e+00	7.824015e-01	-1.082414e-01
5.025495234997542e+00	-2.637283e+00	6.845898e-01	-1.571331e-01
5.035260859997542e+00	-2.063381e+00	6.080606e-01	-1.953844e-01
5.045026484997542e+00	-1.614361e+00	5.481827e-01	-2.253105e-01
5.054792109997542e+00	-1.263048e+00	5.013328e-01	-2.487230e-01
5.064557734997542e+00	-9.881824e-01	4.646759e-01	-2.670394e-01
5.074323359997542e+00	-7.731277e-01	4.359941e-01	-2.813685e-01
5.084088984997542e+00	-6.048694e-01	4.135520e-01	-2.925780e-01
5.093854609997542e+00	-4.732245e-01	3.959917e-01	-3.013467e-01
5.103620234997542e+00	-3.702258e-01	3.822510e-01	-3.082058e-01
5.113385859997542e+00	-2.896397e-01	3.714987e-01	-3.135707e-01
5.123151484997542e+00	-2.265894e-01	3.630846e-01	-3.177666e-01
5.132917109997542e+00	-1.772590e-01	3.564998e-01	-3.210480e-01
5.142682734997542e+00	-1.386629e-01	3.513463e-01	-3.236137e-01
5.152448359997542e+00	-1.084655e-01	3.473127e-01	-3.256195e-01
5.162213984997542e+00	-8.483907e-02	3.441552e-01	-3.271873e-01
5.171979609997542e+00	-6.635380e-02	3.416832e-01	-3.284124e-01
5.181745234997542e+00	-5.189096e-02	3.397476e-01	-3.293693e-01
5.191510859997542e+00	-4.057527e-02	3.382316e-01	-3.301165e-01
5.201276484997542e+00	-3.172189e-02	3.370439e-01	-3.306994e-01
5.211042109997542e+00	-2.479503e-02	3.361130e-01	-3.311540e-01
5.220807734997542e+00	-1.937547e-02	3.353832e-01	-3.315080e-01
5.230573359997542e+00	-1.513521e-02	3.348106e-01	-3.317835e-01
5.240338984997542e+00	-1.181765e-02	3.343610e-01	-3.319974e-01
5.250104609997542e+00	-9.221993e-03	3.340077e-01	-3.321632e-01
5.259870234997542e+00	-7.191158e-03	3.337297e-01	-3.322914e-01
5.269635859997542e+00	-5.602237e-03	3.335106e-01	-3.323901e-01
5.279401484997542e+00	-4.359069e-03	3.333376e-01	-3.324657e-01
5.289167109997542e+00	-3.386418e-03	3.332007e-01	-3.325233e-01
5.298932734997542e+00	-2.625418e-03	3.330920e-01	-3.325669e-01
5.308698359997542e+00	-2.030014e-03	3.330054e-01	-3.325993e-01
5.318463984997542e+00	-1.564171e-03	3.329360e-01	-3.326232e-01
5.328229609997542e+00	-1.199697e-03	3.328802e-01	-3.326402e-01
5.337995234997542e+00	-9.145341e-04	3.328350e-01	-3.326520e-01
5.347760859997542e+00	-6.914237e-04	3.327980e-01	-3.326597e-01
5.357526484997542e+00	-5.168631e-04	3.327675e-01	-3.326641e-01
5.367292109997542e+00	-3.802877e-04	3.327421e-01	-3.326660e-01
5.377057734997542e+00	-2.734319e-04	3.327206e-01	-3.326658e-01
5.386823359997542e+00	-1.898288e-04	3.327022e-01	-3.326642e-01
5.396588984997542e+00	-1.244183e-04	3.326863e-01	-3.326613e-01
5.406354609997542e+00	-7.324183e-05	3.326722e-01	-3.326575e-01
5.416120234997542e+00	-3.320198e-05	3.326597e-01	-3.326530e-01
5.425885859997542e+00	-1.875405e-06	3.326482e-01	-3.326478e-01
5.435651484997542e+00	2.263392e-05	3.326378e-01	-3.326423e-01
5.445417109997542e+00	4.180944e-05	3.326280e-01	-3.326363e-01
5.455182734997542e+00	5.681180e-05	3.326188e-01	-3.326301e-01
5.464948359997542e+00	6.854910e-05	3.326100e-01	-3.326236e-01
5.474713984997542e+00	7.773181e-05	3.326015e-01	-3.326170e-01
5.484479609997542e+00	8.491582e-05	3.325934e-01	-3.326103e-01
5.494245234997542e+00	9.053606e-05	3.325854e-01	-3.326035e-01
5.504010859997542e+00	9.493280e-05	3.325776e-01	-3.325965e-01
5.513776484997542e+00	9.837227e-05	3.325699e-01	-3.325895e-01
5.523542109997542e+00	1.010628e-04	3.325623e-01	-3.325825e-01
5.543073359997542e+00	1.048134e-04	3.325474e-01	-3.325683e-01
5.572370234997542e+00	1.078945e-04	3.325253e-01	-3.325468e-01
5.593296574283256e+00	1.087942e-04	3.325097e-01	-3.325314e-01
5.614222913568971e+00	1.095240e-04	3.324941e-01	-3.325160e-01
5.635149252854685e+00	1.100840e-04	3.324786e-01	-3.325006e-01
5.656075592140398e+00	1.104742e-04	3.324631e-01	-3.324851e-01
5.677001931426113e+00	1.106945e-04	3.324476e-01	-3.324697e-01
5.697928270711827e+00	1.107450e-04	3.324321e-01	-3.324542e-01
5.718854609997542e+00	1.106257e-04	3.324167e-01	-3.324387e-01
9.234479609997543e+00	1.098353e-04	3.298285e-01	-3.298504e-01
1.000000000000000e+01	1.096486e-04	3.292676e-01	-3.292895e-01
