time	V(n003)	I(C1)
0.000000000000000e+00	-9.999000e+01	-3.999600e-16
4.999999987376214e-07	-9.999000e+01	9.094947e-13
5.744541694593377e-07	-9.998987e+01	2.027979e-02
6.489083401810539e-07	-9.998954e+01	3.737050e-02
7.233625109027701e-07	-9.998902e+01	5.127211e-02
7.978166816244864e-07	-9.998829e+01	6.198463e-02
8.722708523462027e-07	-9.998736e+01	6.950807e-02
9.467250230679189e-07	-9.998624e+01	7.384241e-02
1.021179193789635e-06	-9.998492e+01	7.498766e-02
5.853976176575486e-04	-8.953696e+01	6.976582e-02
1.169774056121308e-03	-7.971265e+01	6.485529e-02
1.754150494585067e-03	-7.051198e+01	6.025606e-02
2.338526933048825e-03	-6.193495e+01	5.596812e-02
2.922903371512584e-03	-5.398156e+01	5.199149e-02
3.507279809976343e-03	-4.665182e+01	4.832616e-02
4.091656248440101e-03	-3.994572e+01	4.497213e-02
4.545060266297242e-03	-3.502437e+01	4.251136e-02
4.998464284154383e-03	-3.034084e+01	4.016950e-02
5.451868302011526e-03	-2.589514e+01	3.794657e-02
5.905272319868667e-03	-2.168727e+01	3.584255e-02
6.358676337725808e-03	-1.771722e+01	3.385745e-02
6.812080355582949e-03	-1.398500e+01	3.199127e-02
7.265484373440090e-03	-1.049060e+01	3.024400e-02
7.481723212725806e-03	-8.880264e+00	2.943880e-02
7.697962052011522e-03	-7.310169e+00	2.865373e-02
7.914200891297237e-03	-5.780314e+00	2.788877e-02
8.130439730582953e-03	-4.290699e+00	2.714393e-02
8.346678569868669e-03	-2.841323e+00	2.641922e-02
8.562917409154385e-03	-1.432188e+00	2.571462e-02
8.779156248440102e-03	-6.329349e-02	2.503015e-02
8.827984373440102e-03	2.413207e-01	2.487784e-02
8.925640623440104e-03	8.449994e-01	2.457598e-02
9.072124998440106e-03	1.736812e+00	2.413006e-02
9.204678570091520e-03	2.529335e+00	2.373373e-02
9.337232141742932e-03	3.309351e+00	2.334368e-02
9.469785713394347e-03	4.076860e+00	2.295993e-02
9.602339285045759e-03	4.831862e+00	2.258246e-02
9.734892856697173e-03	5.574356e+00	2.221129e-02
9.867446428348588e-03	6.304343e+00	2.184640e-02
1.000000000000000e-02	7.021823e+00	2.148781e-02
1.000043594233563e-02	7.024165e+00	2.148613e-02
1.000088594732725e-02	7.022166e+00	-5.702047e-02
1.000100000000000e-02	7.020540e+00	-5.701808e-02
1.007712480989245e-02	5.946583e+00	-5.594427e-02
1.015324961978490e-02	4.891955e+00	-5.488977e-02
1.022937442967735e-02	3.856659e+00	-5.385456e-02
1.030549923956980e-02	2.840693e+00	-5.283866e-02
1.038162404946224e-02	1.844057e+00	-5.184207e-02
1.045774885935469e-02	8.667525e-01	-5.086477e-02
1.053387366924714e-02	-9.122191e-02	-4.990678e-02
1.058270179424714e-02	-6.967398e-01	-4.930127e-02
1.063152991924714e-02	-1.294911e+00	-4.870311e-02
1.072918616924714e-02	-2.469569e+00	-4.752847e-02
1.087567054424715e-02	-4.178650e+00	-4.581942e-02
1.102215491924715e-02	-5.826276e+00	-4.417182e-02
1.126629554424715e-02	-8.420808e+00	-4.157733e-02
1.151043616924716e-02	-1.088186e+01	-3.911633e-02
1.175457679424716e-02	-1.320943e+01	-3.678880e-02
1.199871741924716e-02	-1.540352e+01	-3.459475e-02
1.224285804424717e-02	-1.746412e+01	-3.253417e-02
1.248699866924717e-02	-1.939125e+01	-3.060708e-02
1.273113929424717e-02	-2.118489e+01	-2.881347e-02
1.309386250853289e-02	-2.364178e+01	-2.635662e-02
1.345658572281861e-02	-2.592450e+01	-2.407394e-02
1.381930893710433e-02	-2.803306e+01	-2.196541e-02
1.418203215139005e-02	-2.996746e+01	-2.003105e-02
1.454475536567577e-02	-3.172770e+01	-1.827084e-02
1.490747857996149e-02	-3.331377e+01	-1.668479e-02
1.527020179424721e-02	-3.472569e+01	-1.527290e-02
1.563292500853293e-02	-3.602799e+01	-1.397063e-02
1.599564822281865e-02	-3.723797e+01	-1.276066e-02
1.635837143710437e-02	-3.835564e+01	-1.164301e-02
1.672109465139009e-02	-3.938099e+01	-1.061768e-02
1.708381786567581e-02	-4.031402e+01	-9.684664e-03
1.744654107996153e-02	-4.115474e+01	-8.843962e-03
1.780926429424724e-02	-4.190314e+01	-8.095575e-03
1.812222653792621e-02	-4.250473e+01	-7.493354e-03
1.843518878160517e-02	-4.306836e+01	-6.929489e-03
1.874815102528414e-02	-4.359404e+01	-6.403980e-03
1.906111326896311e-02	-4.408176e+01	-5.916827e-03
1.937407551264207e-02	-4.453153e+01	-5.468030e-03
1.968703775632103e-02	-4.494335e+01	-5.057589e-03
2.000000000000000e-02	-4.531721e+01	-4.685504e-03
2.000030000000000e-02	-4.531756e+01	-4.681443e-03
2.000070000000000e-02	-4.530576e+01	2.406231e-01
2.000100000000000e-02	-4.528772e+01	2.405669e-01
2.010045366071434e-02	-3.948391e+01	2.289636e-01
2.019990732142867e-02	-3.393083e+01	2.178607e-01
2.029936098214301e-02	-2.862846e+01	2.072582e-01
2.039881464285734e-02	-2.357680e+01	1.971562e-01
2.049826830357168e-02	-1.877586e+01	1.875546e-01
2.059772196428602e-02	-1.422564e+01	1.784533e-01
2.069717562500036e-02	-9.926129e+00	1.698526e-01
2.074600375000036e-02	-7.877739e+00	1.657557e-01
2.079483187500036e-02	-5.878756e+00	1.617577e-01
2.084366000000036e-02	-3.927988e+00	1.578561e-01
2.089248812500036e-02	-2.024273e+00	1.540486e-01
2.094131625000036e-02	-1.664753e-01	1.503330e-01
2.099014437500036e-02	1.646512e+00	1.467069e-01
2.103897250000036e-02	3.415771e+00	1.431684e-01
2.108780062500036e-02	5.142354e+00	1.397151e-01
2.113662875000036e-02	6.827293e+00	1.363452e-01
2.123428500000036e-02	1.007623e+01	1.298472e-01
2.133194125000036e-02	1.317033e+01	1.236590e-01
2.147842562500037e-02	1.753720e+01	1.149251e-01
2.162491000000037e-02	2.159564e+01	1.068081e-01
2.177139437500037e-02	2.536744e+01	9.926437e-02
2.195275598214323e-02	2.959964e+01	9.079983e-02
2.213411758928609e-02	3.353182e+01	8.293535e-02
2.231547919642895e-02	3.716398e+01	7.567094e-02
2.249684080357181e-02	4.049611e+01	6.900659e-02
2.267820241071467e-02	4.352821e+01	6.294229e-02
2.285956401785753e-02	4.626028e+01	5.747806e-02
2.304092562500039e-02	4.869233e+01	5.261389e-02
2.322228723214325e-02	5.093556e+01	4.812736e-02
2.340364883928611e-02	5.301977e+01	4.395889e-02
2.358501044642897e-02	5.494495e+01	4.010847e-02
2.376637205357183e-02	5.671110e+01	3.657611e-02
2.394773366071469e-02	5.831823e+01	3.336181e-02
2.412909526785755e-02	5.976633e+01	3.046556e-02
2.431045687500041e-02	6.105541e+01	2.788736e-02
2.449181848214326e-02	6.224441e+01	2.550933e-02
2.467318008928613e-02	6.334912e+01	2.329988e-02
2.485454169642898e-02	6.436954e+01	2.125901e-02
2.503590330357185e-02	6.530567e+01	1.938673e-02
2.521726491071470e-02	6.615750e+01	1.768302e-02
2.539862651785757e-02	6.692505e+01	1.614790e-02
2.557998812500042e-02	6.760831e+01	1.478136e-02
2.576134973214328e-02	6.823853e+01	1.352091e-02
2.594271133928614e-02	6.882406e+01	1.234982e-02
2.612407294642900e-02	6.936492e+01	1.126809e-02
2.630543455357186e-02	6.986111e+01	1.027570e-02
2.648679616071472e-02	7.031261e+01	9.372675e-03
2.666815776785758e-02	7.071945e+01	8.559001e-03
2.684951937500044e-02	7.108160e+01	7.834682e-03
2.703088098214330e-02	7.141564e+01	7.166598e-03
2.721224258928616e-02	7.172600e+01	6.545875e-03
2.739360419642902e-02	7.201267e+01	5.972514e-03
2.757496580357188e-02	7.227567e+01	5.446513e-03
2.775632741071474e-02	7.251499e+01	4.967874e-03
2.793768901785760e-02	7.273062e+01	4.536596e-03
2.811905062500046e-02	7.292258e+01	4.152679e-03
2.830041223214332e-02	7.309963e+01	3.798569e-03
2.848177383928618e-02	7.326413e+01	3.469562e-03
2.866313544642904e-02	7.341608e+01	3.165659e-03
2.884449705357190e-02	7.355547e+01	2.886859e-03
2.902585866071476e-02	7.368232e+01	2.633162e-03
2.920722026785762e-02	7.379662e+01	2.404568e-03
2.938858187500048e-02	7.389836e+01	2.201078e-03
2.956994348214334e-02	7.399221e+01	2.013386e-03
2.975130508928620e-02	7.407940e+01	1.839000e-03
2.993266669642906e-02	7.415994e+01	1.677919e-03
3.011402830357192e-02	7.423383e+01	1.530145e-03
3.029538991071478e-02	7.430106e+01	1.395676e-03
3.047675151785764e-02	7.436164e+01	1.274512e-03
3.065811312500050e-02	7.441557e+01	1.166655e-03
3.083947473214335e-02	7.446531e+01	1.067171e-03
3.102083633928620e-02	7.451152e+01	9.747398e-04
3.120219794642905e-02	7.455421e+01	8.893611e-04
3.138355955357191e-02	7.459337e+01	8.110349e-04
3.156492116071476e-02	7.462901e+01	7.397612e-04
3.174628276785761e-02	7.466112e+01	6.755400e-04
3.192764437500047e-02	7.468970e+01	6.183714e-04
3.210900598214331e-02	7.471607e+01	5.656412e-04
3.229036758928616e-02	7.474056e+01	5.166491e-04
3.247172919642901e-02	7.476319e+01	4.713952e-04
3.265309080357185e-02	7.478395e+01	4.298793e-04
3.283445241071470e-02	7.480284e+01	3.921015e-04
3.301581401785755e-02	7.481986e+01	3.580619e-04
3.319717562500039e-02	7.483501e+01	3.277603e-04
3.337853723214324e-02	7.484898e+01	2.998113e-04
3.355989883928609e-02	7.486197e+01	2.738437e-04
3.374126044642894e-02	7.487396e+01	2.498573e-04
3.392262205357178e-02	7.488496e+01	2.278524e-04
3.410398366071463e-02	7.489497e+01	2.078287e-04
3.428534526785747e-02	7.490400e+01	1.897864e-04
3.446670687500032e-02	7.491203e+01	1.737254e-04
3.464806848214317e-02	7.491943e+01	1.589114e-04
3.482943008928602e-02	7.492631e+01	1.451475e-04
3.501079169642887e-02	7.493266e+01	1.324339e-04
3.519215330357171e-02	7.493850e+01	1.207704e-04
3.537351491071455e-02	7.494380e+01	1.101571e-04
3.555487651785740e-02	7.494858e+01	1.005940e-04
3.573623812500025e-02	7.495284e+01	9.208107e-05
3.591759973214310e-02	7.495677e+01	8.422907e-05
3.609896133928595e-02	7.496042e+01	7.693371e-05
3.628032294642879e-02	7.496379e+01	7.019499e-05
3.646168455357163e-02	7.496688e+01	6.401290e-05
3.664304616071448e-02	7.496969e+01	5.838745e-05
3.682440776785733e-02	7.497223e+01	5.331864e-05
3.700576937500018e-02	7.497448e+01	4.880647e-05
3.718713098214303e-02	7.497656e+01	4.464461e-05
3.736849258928587e-02	7.497849e+01	4.077779e-05
3.754985419642872e-02	7.498028e+01	3.720601e-05
3.773121580357156e-02	7.498192e+01	3.392927e-05
3.791257741071441e-02	7.498341e+01	3.094757e-05
3.809393901785726e-02	7.498475e+01	2.826090e-05
3.827530062500011e-02	7.498595e+01	2.586928e-05
3.845666223214295e-02	7.498705e+01	2.366334e-05
3.863802383928580e-02	7.498808e+01	2.161378e-05
3.881938544642865e-02	7.498903e+01	1.972060e-05
3.900074705357149e-02	7.498990e+01	1.798380e-05
3.918210866071434e-02	7.499069e+01	1.640339e-05
3.936347026785719e-02	7.499140e+01	1.497935e-05
3.954483187500003e-02	7.499203e+01	1.371170e-05
3.972619348214288e-02	7.499261e+01	1.254247e-05
3.990755508928573e-02	7.499316e+01	1.145612e-05
4.008891669642858e-02	7.499366e+01	1.045267e-05
4.027027830357142e-02	7.499412e+01	9.532098e-06
4.045163991071427e-02	7.499454e+01	8.694418e-06
4.063300151785711e-02	7.499492e+01	7.939626e-06
4.081436312499996e-02	7.499525e+01	7.267723e-06
4.100270017857138e-02	7.499557e+01	6.625997e-06
4.119103723214280e-02	7.499587e+01	6.031109e-06
4.137937428571421e-02	7.499614e+01	5.483061e-06
4.156771133928563e-02	7.499639e+01	4.981851e-06
4.175604839285705e-02	7.499662e+01	4.527480e-06
4.194438544642847e-02	7.499682e+01	4.119948e-06
4.213272249999989e-02	7.499700e+01	3.759255e-06
4.232105955357130e-02	7.499717e+01	3.427320e-06
4.250939660714272e-02	7.499733e+01	3.119612e-06
4.269773366071414e-02	7.499747e+01	2.836132e-06
4.288607071428556e-02	7.499760e+01	2.576880e-06
4.307440776785697e-02	7.499772e+01	2.341855e-06
4.326274482142840e-02	7.499782e+01	2.131058e-06
4.345108187499981e-02	7.499791e+01	1.944488e-06
4.364639437499980e-02	7.499800e+01	1.766951e-06
4.384170687499979e-02	7.499808e+01	1.602738e-06
4.403701937499978e-02	7.499816e+01	1.451849e-06
4.423233187499977e-02	7.499823e+01	1.314284e-06
4.442764437499976e-02	7.499829e+01	1.190043e-06
4.462295687499974e-02	7.499834e+01	1.079126e-06
4.481826937499973e-02	7.499839e+01	9.815333e-07
4.501358187499972e-02	7.499844e+01	8.919166e-07
4.520889437499971e-02	7.499848e+01	8.090256e-07
4.540420687499970e-02	7.499852e+01	7.328602e-07
4.559951937499969e-02	7.499855e+01	6.634206e-07
4.579483187499968e-02	7.499858e+01	6.007066e-07
4.599014437499967e-02	7.499861e+01	5.447184e-07
4.618545687499966e-02	7.499863e+01	4.954558e-07
4.642959749999964e-02	7.499866e+01	4.400894e-07
4.667373812499963e-02	7.499869e+01	3.896236e-07
4.691787874999961e-02	7.499872e+01	3.440585e-07
4.716201937499960e-02	7.499874e+01	3.033940e-07
4.740615999999959e-02	7.499875e+01	2.676302e-07
4.765030062499957e-02	7.499877e+01	2.367670e-07
4.789444124999956e-02	7.499878e+01	2.108044e-07
4.819438544642812e-02	7.499879e+01	1.825903e-07
4.849432964285667e-02	7.499881e+01	1.572558e-07
4.879427383928522e-02	7.499882e+01	1.348009e-07
4.909421803571377e-02	7.499883e+01	1.152257e-07
4.939416223214233e-02	7.499884e+01	9.853012e-08
4.969410642857089e-02	7.499884e+01	8.471416e-08
4.999405062499944e-02	7.499885e+01	7.377783e-08
5.000000000000000e-02	7.499886e+01	8.946911e-06
