Freq.	V(n002)
1.00000000000000e+02	(-4.41248649986690e+01dB,-9.11230614261514e+01°)
1.00230523807790e+02	(-4.41048701568772e+01dB,-9.11256500126161e+01°)
1.00461579027839e+02	(-4.40848753388893e+01dB,-9.11282445640499e+01°)
1.00693166885180e+02	(-4.40648805448148e+01dB,-9.11308450941875e+01°)
1.00925288607668e+02	(-4.40448857747643e+01dB,-9.11334516167944e+01°)
1.01157945425990e+02	(-4.40248910288485e+01dB,-9.11360641456690e+01°)
1.01391138573668e+02	(-4.40048963071788e+01dB,-9.11386826946394e+01°)
1.01624869287070e+02	(-4.39849016098670e+01dB,-9.11413072775679e+01°)
1.01859138805412e+02	(-4.39649069370255e+01dB,-9.11439379083469e+01°)
1.02093948370768e+02	(-4.39449122887673e+01dB,-9.11465746009015e+01°)
1.02329299228075e+02	(-4.39249176652057e+01dB,-9.11492173691882e+01°)
1.02565192625141e+02	(-4.39049230664547e+01dB,-9.11518662271961e+01°)
1.02801629812647e+02	(-4.38849284926287e+01dB,-9.11545211889459e+01°)
1.03038612044162e+02	(-4.38649339438427e+01dB,-9.11571822684914e+01°)
1.03276140576140e+02	(-4.38449394202123e+01dB,-9.11598494799175e+01°)
1.03514216667934e+02	(-4.38249449218536e+01dB,-9.11625228373422e+01°)
1.03752841581801e+02	(-4.38049504488830e+01dB,-9.11652023549159e+01°)
1.03992016582906e+02	(-4.37849560014177e+01dB,-9.11678880468215e+01°)
1.04231742939330e+02	(-4.37649615795755e+01dB,-9.11705799272740e+01°)
1.04472021922080e+02	(-4.37449671834744e+01dB,-9.11732780105216e+01°)
1.04712854805090e+02	(-4.37249728132334e+01dB,-9.11759823108446e+01°)
1.04954242865232e+02	(-4.37049784689716e+01dB,-9.11786928425571e+01°)
1.05196187382322e+02	(-4.36849841508089e+01dB,-9.11814096200047e+01°)
1.05438689639126e+02	(-4.36649898588658e+01dB,-9.11841326575672e+01°)
1.05681750921366e+02	(-4.36449955932632e+01dB,-9.11868619696573e+01°)
1.05925372517729e+02	(-4.36250013541226e+01dB,-9.11895975707198e+01°)
1.06169555719872e+02	(-4.36050071415661e+01dB,-9.11923394752333e+01°)
1.06414301822431e+02	(-4.35850129557164e+01dB,-9.11950876977098e+01°)
1.06659612123026e+02	(-4.35650187966966e+01dB,-9.11978422526943e+01°)
1.06905487922266e+02	(-4.35450246646305e+01dB,-9.12006031547654e+01°)
1.07151930523760e+02	(-4.35250305596425e+01dB,-9.12033704185358e+01°)
1.07398941234124e+02	(-4.35050364818575e+01dB,-9.12061440586500e+01°)
1.07646521362983e+02	(-4.34850424314011e+01dB,-9.12089240897877e+01°)
1.07894672222983e+02	(-4.34650484083991e+01dB,-9.12117105266615e+01°)
1.08143395129794e+02	(-4.34450544129785e+01dB,-9.12145033840185e+01°)
1.08392691402120e+02	(-4.34250604452663e+01dB,-9.12173026766391e+01°)
1.08642562361706e+02	(-4.34050665053903e+01dB,-9.12201084193376e+01°)
1.08893009333343e+02	(-4.33850725934792e+01dB,-9.12229206269625e+01°)
1.09144033644875e+02	(-4.33650787096617e+01dB,-9.12257393143965e+01°)
1.09395636627209e+02	(-4.33450848540676e+01dB,-9.12285644965563e+01°)
1.09647819614318e+02	(-4.33250910268270e+01dB,-9.12313961883927e+01°)
1.09900583943252e+02	(-4.33050972280707e+01dB,-9.12342344048910e+01°)
1.10153930954141e+02	(-4.32851034579302e+01dB,-9.12370791610711e+01°)
1.10407861990207e+02	(-4.32651097165374e+01dB,-9.12399304719869e+01°)
1.10662378397766e+02	(-4.32451160040250e+01dB,-9.12427883527273e+01°)
1.10917481526240e+02	(-4.32251223205262e+01dB,-9.12456528184158e+01°)
1.11173172728159e+02	(-4.32051286661749e+01dB,-9.12485238842101e+01°)
1.11429453359173e+02	(-4.31851350411055e+01dB,-9.12514015653033e+01°)
1.11686324778056e+02	(-4.31651414454530e+01dB,-9.12542858769228e+01°)
1.11943788346715e+02	(-4.31451478793533e+01dB,-9.12571768343316e+01°)
1.12201845430196e+02	(-4.31251543429426e+01dB,-9.12600744528275e+01°)
1.12460497396692e+02	(-4.31051608363579e+01dB,-9.12629787477428e+01°)
1.12719745617551e+02	(-4.30851673597367e+01dB,-9.12658897344462e+01°)
1.12979591467279e+02	(-4.30651739132174e+01dB,-9.12688074283405e+01°)
1.13240036323555e+02	(-4.30451804969388e+01dB,-9.12717318448644e+01°)
1.13501081567231e+02	(-4.30251871110403e+01dB,-9.12746629994923e+01°)
1.13762728582343e+02	(-4.30051937556621e+01dB,-9.12776009077328e+01°)
1.14024978756116e+02	(-4.29852004309451e+01dB,-9.12805455851321e+01°)
1.14287833478977e+02	(-4.29652071370306e+01dB,-9.12834970472707e+01°)
1.14551294144553e+02	(-4.29452138740607e+01dB,-9.12864553097650e+01°)
1.14815362149688e+02	(-4.29252206421782e+01dB,-9.12894203882673e+01°)
1.15080038894443e+02	(-4.29052274415266e+01dB,-9.12923922984665e+01°)
1.15345325782109e+02	(-4.28852342722498e+01dB,-9.12953710560868e+01°)
1.15611224219210e+02	(-4.28652411344926e+01dB,-9.12983566768883e+01°)
1.15877735615512e+02	(-4.28452480284004e+01dB,-9.13013491766674e+01°)
1.16144861384034e+02	(-4.28252549541193e+01dB,-9.13043485712573e+01°)
1.16412602941049e+02	(-4.28052619117960e+01dB,-9.13073548765274e+01°)
1.16680961706096e+02	(-4.27852689015780e+01dB,-9.13103681083826e+01°)
1.16949939101987e+02	(-4.27652759236132e+01dB,-9.13133882827651e+01°)
1.17219536554813e+02	(-4.27452829780506e+01dB,-9.13164154156537e+01°)
1.17489755493953e+02	(-4.27252900650395e+01dB,-9.13194495230641e+01°)
1.17760597352080e+02	(-4.27052971847302e+01dB,-9.13224906210472e+01°)
1.18032063565173e+02	(-4.26853043372735e+01dB,-9.13255387256927e+01°)
1.18304155572516e+02	(-4.26653115228209e+01dB,-9.13285938531263e+01°)
1.18576874816716e+02	(-4.26453187415247e+01dB,-9.13316560195105e+01°)
1.18850222743701e+02	(-4.26253259935378e+01dB,-9.13347252410447e+01°)
1.19124200802737e+02	(-4.26053332790139e+01dB,-9.13378015339671e+01°)
1.19398810446427e+02	(-4.25853405981073e+01dB,-9.13408849145505e+01°)
1.19674053130724e+02	(-4.25653479509731e+01dB,-9.13439753991078e+01°)
1.19949930314937e+02	(-4.25453553377670e+01dB,-9.13470730039867e+01°)
1.20226443461741e+02	(-4.25253627586457e+01dB,-9.13501777455748e+01°)
1.20503594037179e+02	(-4.25053702137663e+01dB,-9.13532896402949e+01°)
1.20781383510677e+02	(-4.24853777032867e+01dB,-9.13564087046095e+01°)
1.21059813355048e+02	(-4.24653852273656e+01dB,-9.13595349550186e+01°)
1.21338885046497e+02	(-4.24453927861625e+01dB,-9.13626684080586e+01°)
1.21618600064636e+02	(-4.24254003798375e+01dB,-9.13658090803044e+01°)
1.21898959892486e+02	(-4.24054080085515e+01dB,-9.13689569883704e+01°)
1.22179966016487e+02	(-4.23854156724660e+01dB,-9.13721121489073e+01°)
1.22461619926504e+02	(-4.23654233717435e+01dB,-9.13752745786049e+01°)
1.22743923115840e+02	(-4.23454311065470e+01dB,-9.13784442941904e+01°)
1.23026877081238e+02	(-4.23254388770406e+01dB,-9.13816213124307e+01°)
1.23310483322890e+02	(-4.23054466833886e+01dB,-9.13848056501297e+01°)
1.23594743344450e+02	(-4.22854545257566e+01dB,-9.13879973241309e+01°)
1.23879658653036e+02	(-4.22654624043108e+01dB,-9.13911963513165e+01°)
1.24165230759240e+02	(-4.22454703192179e+01dB,-9.13944027486062e+01°)
1.24451461177138e+02	(-4.22254782706457e+01dB,-9.13976165329598e+01°)
1.24738351424294e+02	(-4.22054862587626e+01dB,-9.14008377213751e+01°)
1.25025903021771e+02	(-4.21854942837379e+01dB,-9.14040663308890e+01°)
1.25314117494141e+02	(-4.21655023457416e+01dB,-9.14073023785783e+01°)
1.25602996369487e+02	(-4.21455104449444e+01dB,-9.14105458815583e+01°)
1.25892541179416e+02	(-4.21255185815180e+01dB,-9.14137968569828e+01°)
1.26182753459066e+02	(-4.21055267556347e+01dB,-9.14170553220466e+01°)
1.26473634747114e+02	(-4.20855349674677e+01dB,-9.14203212939825e+01°)
1.26765186585784e+02	(-4.20655432171909e+01dB,-9.14235947900630e+01°)
1.27057410520853e+02	(-4.20455515049792e+01dB,-9.14268758276012e+01°)
1.27350308101665e+02	(-4.20255598310080e+01dB,-9.14301644239489e+01°)
1.27643880881134e+02	(-4.20055681954538e+01dB,-9.14334605964981e+01°)
1.27938130415752e+02	(-4.19855765984937e+01dB,-9.14367643626796e+01°)
1.28233058265601e+02	(-4.19655850403059e+01dB,-9.14400757399662e+01°)
1.28528665994361e+02	(-4.19455935210690e+01dB,-9.14433947458689e+01°)
1.28824955169313e+02	(-4.19256020409627e+01dB,-9.14467213979404e+01°)
1.29121927361353e+02	(-4.19056106001676e+01dB,-9.14500557137719e+01°)
1.29419584144998e+02	(-4.18856191988650e+01dB,-9.14533977109963e+01°)
1.29717927098395e+02	(-4.18656278372369e+01dB,-9.14567474072862e+01°)
1.30016957803328e+02	(-4.18456365154664e+01dB,-9.14601048203550e+01°)
1.30316677845229e+02	(-4.18256452337373e+01dB,-9.14634699679565e+01°)
1.30617088813183e+02	(-4.18056539922344e+01dB,-9.14668428678857e+01°)
1.30918192299940e+02	(-4.17856627911430e+01dB,-9.14702235379771e+01°)
1.31219989901919e+02	(-4.17656716306497e+01dB,-9.14736119961077e+01°)
1.31522483219223e+02	(-4.17456805109416e+01dB,-9.14770082601945e+01°)
1.31825673855640e+02	(-4.17256894322069e+01dB,-9.14804123481953e+01°)
1.32129563418657e+02	(-4.17056983946346e+01dB,-9.14838242781097e+01°)
1.32434153519466e+02	(-4.16857073984144e+01dB,-9.14872440679785e+01°)
1.32739445772973e+02	(-4.16657164437371e+01dB,-9.14906717358843e+01°)
1.33045441797808e+02	(-4.16457255307944e+01dB,-9.14941072999493e+01°)
1.33352143216332e+02	(-4.16257346597786e+01dB,-9.14975507783387e+01°)
1.33659551654643e+02	(-4.16057438308832e+01dB,-9.15010021892597e+01°)
1.33967668742593e+02	(-4.15857530443024e+01dB,-9.15044615509596e+01°)
1.34276496113785e+02	(-4.15657623002313e+01dB,-9.15079288817292e+01°)
1.34586035405594e+02	(-4.15457715988662e+01dB,-9.15114041998999e+01°)
1.34896288259164e+02	(-4.15257809404037e+01dB,-9.15148875238460e+01°)
1.35207256319427e+02	(-4.15057903250420e+01dB,-9.15183788719832e+01°)
1.35518941235103e+02	(-4.14857997529797e+01dB,-9.15218782627700e+01°)
1.35831344658714e+02	(-4.14658092244165e+01dB,-9.15253857147065e+01°)
1.36144468246594e+02	(-4.14458187395530e+01dB,-9.15289012463355e+01°)
1.36458313658891e+02	(-4.14258282985908e+01dB,-9.15324248762429e+01°)
1.36772882559584e+02	(-4.14058379017324e+01dB,-9.15359566230558e+01°)
1.37088176616484e+02	(-4.13858475491811e+01dB,-9.15394965054453e+01°)
1.37404197501251e+02	(-4.13658572411413e+01dB,-9.15430445421244e+01°)
1.37720946889394e+02	(-4.13458669778182e+01dB,-9.15466007518495e+01°)
1.38038426460287e+02	(-4.13258767594181e+01dB,-9.15501651534191e+01°)
1.38356637897177e+02	(-4.13058865861482e+01dB,-9.15537377656763e+01°)
1.38675582887188e+02	(-4.12858964582166e+01dB,-9.15573186075056e+01°)
1.38995263121334e+02	(-4.12659063758324e+01dB,-9.15609076978358e+01°)
1.39315680294529e+02	(-4.12459163392055e+01dB,-9.15645050556384e+01°)
1.39636836105593e+02	(-4.12259263485472e+01dB,-9.15681106999295e+01°)
1.39958732257261e+02	(-4.12059364040692e+01dB,-9.15717246497671e+01°)
1.40281370456195e+02	(-4.11859465059847e+01dB,-9.15753469242541e+01°)
1.40604752412990e+02	(-4.11659566545076e+01dB,-9.15789775425366e+01°)
1.40928879842186e+02	(-4.11459668498527e+01dB,-9.15826165238050e+01°)
1.41253754462274e+02	(-4.11259770922361e+01dB,-9.15862638872924e+01°)
1.41579377995707e+02	(-4.11059873818746e+01dB,-9.15899196522781e+01°)
1.41905752168908e+02	(-4.10859977189862e+01dB,-9.15935838380827e+01°)
1.42232878712281e+02	(-4.10660081037898e+01dB,-9.15972564640738e+01°)
1.42560759360218e+02	(-4.10460185365053e+01dB,-9.16009375496609e+01°)
1.42889395851109e+02	(-4.10260290173536e+01dB,-9.16046271143007e+01°)
1.43218789927353e+02	(-4.10060395465568e+01dB,-9.16083251774910e+01°)
1.43548943335364e+02	(-4.09860501243378e+01dB,-9.16120317587778e+01°)
1.43879857825583e+02	(-4.09660607509207e+01dB,-9.16157468777485e+01°)
1.44211535152486e+02	(-4.09460714265304e+01dB,-9.16194705540382e+01°)
1.44543977074592e+02	(-4.09260821513931e+01dB,-9.16232028073249e+01°)
1.44877185354475e+02	(-4.09060929257359e+01dB,-9.16269436573329e+01°)
1.45211161758773e+02	(-4.08861037497870e+01dB,-9.16306931238306e+01°)
1.45545908058195e+02	(-4.08661146237755e+01dB,-9.16344512266327e+01°)
1.45881426027534e+02	(-4.08461255479318e+01dB,-9.16382179855983e+01°)
1.46217717445671e+02	(-4.08261365224872e+01dB,-9.16419934206323e+01°)
1.46554784095590e+02	(-4.08061475476741e+01dB,-9.16457775516854e+01°)
1.46892627764385e+02	(-4.07861586237260e+01dB,-9.16495703987534e+01°)
1.47231250243271e+02	(-4.07661697508774e+01dB,-9.16533719818787e+01°)
1.47570653327588e+02	(-4.07461809293639e+01dB,-9.16571823211485e+01°)
1.47910838816819e+02	(-4.07261921594224e+01dB,-9.16610014366966e+01°)
1.48251808514594e+02	(-4.07062034412906e+01dB,-9.16648293487034e+01°)
1.48593564228699e+02	(-4.06862147752073e+01dB,-9.16686660773939e+01°)
1.48936107771090e+02	(-4.06662261614126e+01dB,-9.16725116430404e+01°)
1.49279440957898e+02	(-4.06462376001477e+01dB,-9.16763660659621e+01°)
1.49623565609442e+02	(-4.06262490916546e+01dB,-9.16802293665231e+01°)
1.49968483550236e+02	(-4.06062606361769e+01dB,-9.16841015651356e+01°)
1.50314196609001e+02	(-4.05862722339588e+01dB,-9.16879826822577e+01°)
1.50660706618673e+02	(-4.05662838852461e+01dB,-9.16918727383940e+01°)
1.51008015416413e+02	(-4.05462955902853e+01dB,-9.16957717540974e+01°)
1.51356124843619e+02	(-4.05263073493244e+01dB,-9.16996797499658e+01°)
1.51705036745932e+02	(-4.05063191626124e+01dB,-9.17035967466458e+01°)
1.52054752973248e+02	(-4.04863310303994e+01dB,-9.17075227648306e+01°)
1.52405275379728e+02	(-4.04663429529366e+01dB,-9.17114578252611e+01°)
1.52756605823806e+02	(-4.04463549304766e+01dB,-9.17154019487245e+01°)
1.53108746168201e+02	(-4.04263669632730e+01dB,-9.17193551560571e+01°)
1.53461698279928e+02	(-4.04063790515804e+01dB,-9.17233174681419e+01°)
1.53815464030302e+02	(-4.03863911956549e+01dB,-9.17272889059096e+01°)
1.54170045294954e+02	(-4.03664033957537e+01dB,-9.17312694903392e+01°)
1.54525443953840e+02	(-4.03464156521349e+01dB,-9.17352592424571e+01°)
1.54881661891247e+02	(-4.03264279650582e+01dB,-9.17392581833381e+01°)
1.55238700995807e+02	(-4.03064403347842e+01dB,-9.17432663341052e+01°)
1.55596563160506e+02	(-4.02864527615749e+01dB,-9.17472837159297e+01°)
1.55955250282694e+02	(-4.02664652456933e+01dB,-9.17513103500319e+01°)
1.56314764264094e+02	(-4.02464777874037e+01dB,-9.17553462576786e+01°)
1.56675107010813e+02	(-4.02264903869718e+01dB,-9.17593914601876e+01°)
1.57036280433354e+02	(-4.02065030446642e+01dB,-9.17634459789240e+01°)
1.57398286446620e+02	(-4.01865157607489e+01dB,-9.17675098353019e+01°)
1.57761126969933e+02	(-4.01665285354952e+01dB,-9.17715830507852e+01°)
1.58124803927037e+02	(-4.01465413691735e+01dB,-9.17756656468857e+01°)
1.58489319246110e+02	(-4.01265542620556e+01dB,-9.17797576451641e+01°)
1.58854674859776e+02	(-4.01065672144144e+01dB,-9.17838590672326e+01°)
1.59220872705115e+02	(-4.00865802265240e+01dB,-9.17879699347503e+01°)
1.59587914723672e+02	(-4.00665932986601e+01dB,-9.17920902694268e+01°)
1.59955802861465e+02	(-4.00466064310993e+01dB,-9.17962200930217e+01°)
1.60324539069002e+02	(-4.00266196241197e+01dB,-9.18003594273433e+01°)
1.60694125301286e+02	(-4.00066328780005e+01dB,-9.18045082942507e+01°)
1.61064563517825e+02	(-3.99866461930224e+01dB,-9.18086667156526e+01°)
1.61435855682647e+02	(-3.99666595694672e+01dB,-9.18128347135076e+01°)
1.61808003764305e+02	(-3.99466730076181e+01dB,-9.18170123098239e+01°)
1.62181009735891e+02	(-3.99266865077596e+01dB,-9.18211995266616e+01°)
1.62554875575047e+02	(-3.99067000701775e+01dB,-9.18253963861298e+01°)
1.62929603263970e+02	(-3.98867136951589e+01dB,-9.18296029103880e+01°)
1.63305194789432e+02	(-3.98667273829922e+01dB,-9.18338191216480e+01°)
1.63681652142779e+02	(-3.98467411339672e+01dB,-9.18380450421696e+01°)
1.64058977319952e+02	(-3.98267549483750e+01dB,-9.18422806942658e+01°)
1.64437172321491e+02	(-3.98067688265079e+01dB,-9.18465261002996e+01°)
1.64816239152549e+02	(-3.97867827686599e+01dB,-9.18507812826853e+01°)
1.65196179822900e+02	(-3.97667967751260e+01dB,-9.18550462638880e+01°)
1.65576996346951e+02	(-3.97468108462027e+01dB,-9.18593210664248e+01°)
1.65958690743754e+02	(-3.97268249821879e+01dB,-9.18636057128627e+01°)
1.66341265037015e+02	(-3.97068391833808e+01dB,-9.18679002258225e+01°)
1.66724721255104e+02	(-3.96868534500819e+01dB,-9.18722046279743e+01°)
1.67109061431069e+02	(-3.96668677825934e+01dB,-9.18765189420423e+01°)
1.67494287602642e+02	(-3.96468821812185e+01dB,-9.18808431908005e+01°)
1.67880401812254e+02	(-3.96268966462621e+01dB,-9.18851773970752e+01°)
1.68267406107045e+02	(-3.96069111780303e+01dB,-9.18895215837470e+01°)
1.68655302538872e+02	(-3.95869257768307e+01dB,-9.18938757737456e+01°)
1.69044093164324e+02	(-3.95669404429724e+01dB,-9.18982399900550e+01°)
1.69433780044731e+02	(-3.95469551767657e+01dB,-9.19026142557107e+01°)
1.69824365246172e+02	(-3.95269699785225e+01dB,-9.19069985938020e+01°)
1.70215850839493e+02	(-3.95069848485561e+01dB,-9.19113930274694e+01°)
1.70608238900310e+02	(-3.94869997871813e+01dB,-9.19157975799068e+01°)
1.71001531509027e+02	(-3.94670147947141e+01dB,-9.19202122743619e+01°)
1.71395730750840e+02	(-3.94470298714724e+01dB,-9.19246371341340e+01°)
1.71790838715757e+02	(-3.94270450177751e+01dB,-9.19290721825765e+01°)
1.72186857498599e+02	(-3.94070602339428e+01dB,-9.19335174430952e+01°)
1.72583789199018e+02	(-3.93870755202976e+01dB,-9.19379729391510e+01°)
1.72981635921508e+02	(-3.93670908771630e+01dB,-9.19424386942564e+01°)
1.73380399775412e+02	(-3.93471063048641e+01dB,-9.19469147319786e+01°)
1.73780082874935e+02	(-3.93271218037272e+01dB,-9.19514010759380e+01°)
1.74180687339159e+02	(-3.93071373740806e+01dB,-9.19558977498092e+01°)
1.74582215292048e+02	(-3.92871530162536e+01dB,-9.19604047773208e+01°)
1.74984668862463e+02	(-3.92671687305774e+01dB,-9.19649221822561e+01°)
1.75388050184174e+02	(-3.92471845173845e+01dB,-9.19694499884515e+01°)
1.75792361395867e+02	(-3.92272003770089e+01dB,-9.19739882197983e+01°)
1.76197604641161e+02	(-3.92072163097864e+01dB,-9.19785369002420e+01°)
1.76603782068614e+02	(-3.91872323160541e+01dB,-9.19830960537834e+01°)
1.77010895831740e+02	(-3.91672483961508e+01dB,-9.19876657044779e+01°)
1.77418948089014e+02	(-3.91472645504167e+01dB,-9.19922458764342e+01°)
1.77827941003890e+02	(-3.91272807791937e+01dB,-9.19968365938184e+01°)
1.78237876744807e+02	(-3.91072970828253e+01dB,-9.20014378808499e+01°)
1.78648757485203e+02	(-3.90873134616564e+01dB,-9.20060497618041e+01°)
1.79060585403527e+02	(-3.90673299160336e+01dB,-9.20106722610113e+01°)
1.79473362683250e+02	(-3.90473464463051e+01dB,-9.20153054028580e+01°)
1.79887091512876e+02	(-3.90273630528209e+01dB,-9.20199492117852e+01°)
1.80301774085954e+02	(-3.90073797359321e+01dB,-9.20246037122896e+01°)
1.80717412601090e+02	(-3.89873964959919e+01dB,-9.20292689289262e+01°)
1.81134009261958e+02	(-3.89674133333550e+01dB,-9.20339448863024e+01°)
1.81551566277311e+02	(-3.89474302483775e+01dB,-9.20386316090838e+01°)
1.81970085860996e+02	(-3.89274472414175e+01dB,-9.20433291219920e+01°)
1.82389570231961e+02	(-3.89074643128345e+01dB,-9.20480374498046e+01°)
1.82810021614272e+02	(-3.88874814629897e+01dB,-9.20527566173553e+01°)
1.83231442237119e+02	(-3.88674986922460e+01dB,-9.20574866495348e+01°)
1.83653834334832e+02	(-3.88475160009680e+01dB,-9.20622275712907e+01°)
1.84077200146893e+02	(-3.88275333895218e+01dB,-9.20669794076277e+01°)
1.84501541917945e+02	(-3.88075508582755e+01dB,-9.20717421836072e+01°)
1.84926861897805e+02	(-3.87875684075986e+01dB,-9.20765159243461e+01°)
1.85353162341478e+02	(-3.87675860378624e+01dB,-9.20813006550209e+01°)
1.85780445509167e+02	(-3.87476037494400e+01dB,-9.20860964008638e+01°)
1.86208713666284e+02	(-3.87276215427060e+01dB,-9.20909031871656e+01°)
1.86637969083464e+02	(-3.87076394180370e+01dB,-9.20957210392745e+01°)
1.87068214036577e+02	(-3.86876573758112e+01dB,-9.21005499825955e+01°)
1.87499450806739e+02	(-3.86676754164084e+01dB,-9.21053900425916e+01°)
1.87931681680324e+02	(-3.86476935402104e+01dB,-9.21102412447852e+01°)
1.88364908948977e+02	(-3.86277117476006e+01dB,-9.21151036147555e+01°)
1.88799134909627e+02	(-3.86077300389643e+01dB,-9.21199771781400e+01°)
1.89234361864495e+02	(-3.85877484146882e+01dB,-9.21248619606350e+01°)
1.89670592121112e+02	(-3.85677668751613e+01dB,-9.21297579879947e+01°)
1.90107827992327e+02	(-3.85477854207741e+01dB,-9.21346652860333e+01°)
1.90546071796322e+02	(-3.85278040519189e+01dB,-9.21395838806219e+01°)
1.90985325856621e+02	(-3.85078227689899e+01dB,-9.21445137976924e+01°)
1.91425592502106e+02	(-3.84878415723829e+01dB,-9.21494550632334e+01°)
1.91866874067026e+02	(-3.84678604624959e+01dB,-9.21544077032947e+01°)
1.92309172891013e+02	(-3.84478794397284e+01dB,-9.21593717439844e+01°)
