Freq.	V(n010)
1.00000000000000e+00	(-5.01845700502039e+01dB,-9.02535999062467e+01°)
1.00230523807790e+00	(-5.01645702419789e+01dB,-9.02541845228092e+01°)
1.00461579027839e+00	(-5.01445704346392e+01dB,-9.02547704871102e+01°)
1.00693166885180e+00	(-5.01245706281889e+01dB,-9.02553578022572e+01°)
1.00925288607668e+00	(-5.01045708226321e+01dB,-9.02559464713644e+01°)
1.01157945425990e+00	(-5.00845710179729e+01dB,-9.02565364975535e+01°)
1.01391138573668e+00	(-5.00645712142154e+01dB,-9.02571278839534e+01°)
1.01624869287070e+00	(-5.00445714113639e+01dB,-9.02577206336999e+01°)
1.01859138805412e+00	(-5.00245716094224e+01dB,-9.02583147499365e+01°)
1.02093948370768e+00	(-5.00045718083952e+01dB,-9.02589102358135e+01°)
1.02329299228075e+00	(-4.99845720082866e+01dB,-9.02595070944889e+01°)
1.02565192625141e+00	(-4.99645722091007e+01dB,-9.02601053291275e+01°)
1.02801629812647e+00	(-4.99445724108419e+01dB,-9.02607049429018e+01°)
1.03038612044162e+00	(-4.99245726135143e+01dB,-9.02613059389915e+01°)
1.03276140576140e+00	(-4.99045728171223e+01dB,-9.02619083205835e+01°)
1.03514216667934e+00	(-4.98845730216703e+01dB,-9.02625120908721e+01°)
1.03752841581801e+00	(-4.98645732271625e+01dB,-9.02631172530592e+01°)
1.03992016582906e+00	(-4.98445734336033e+01dB,-9.02637238103538e+01°)
1.04231742939330e+00	(-4.98245736409972e+01dB,-9.02643317659725e+01°)
1.04472021922080e+00	(-4.98045738493484e+01dB,-9.02649411231390e+01°)
1.04712854805090e+00	(-4.97845740586614e+01dB,-9.02655518850849e+01°)
1.04954242865232e+00	(-4.97645742689408e+01dB,-9.02661640550488e+01°)
1.05196187382322e+00	(-4.97445744801908e+01dB,-9.02667776362772e+01°)
1.05438689639126e+00	(-4.97245746924160e+01dB,-9.02673926320236e+01°)
1.05681750921366e+00	(-4.97045749056209e+01dB,-9.02680090455495e+01°)
1.05925372517729e+00	(-4.96845751198101e+01dB,-9.02686268801235e+01°)
1.06169555719872e+00	(-4.96645753349880e+01dB,-9.02692461390221e+01°)
1.06414301822431e+00	(-4.96445755511593e+01dB,-9.02698668255291e+01°)
1.06659612123026e+00	(-4.96245757683284e+01dB,-9.02704889429360e+01°)
1.06905487922266e+00	(-4.96045759865002e+01dB,-9.02711124945418e+01°)
1.07151930523760e+00	(-4.95845762056790e+01dB,-9.02717374836532e+01°)
1.07398941234124e+00	(-4.95645764258697e+01dB,-9.02723639135844e+01°)
1.07646521362983e+00	(-4.95445766470769e+01dB,-9.02729917876574e+01°)
1.07894672222983e+00	(-4.95245768693052e+01dB,-9.02736211092017e+01°)
1.08143395129794e+00	(-4.95045770925594e+01dB,-9.02742518815547e+01°)
1.08392691402120e+00	(-4.94845773168442e+01dB,-9.02748841080612e+01°)
1.08642562361706e+00	(-4.94645775421645e+01dB,-9.02755177920741e+01°)
1.08893009333343e+00	(-4.94445777685248e+01dB,-9.02761529369536e+01°)
1.09144033644875e+00	(-4.94245779959302e+01dB,-9.02767895460680e+01°)
1.09395636627209e+00	(-4.94045782243853e+01dB,-9.02774276227931e+01°)
1.09647819614318e+00	(-4.93845784538951e+01dB,-9.02780671705127e+01°)
1.09900583943252e+00	(-4.93645786844644e+01dB,-9.02787081926183e+01°)
1.10153930954141e+00	(-4.93445789160980e+01dB,-9.02793506925093e+01°)
1.10407861990207e+00	(-4.93245791488010e+01dB,-9.02799946735928e+01°)
1.10662378397766e+00	(-4.93045793825782e+01dB,-9.02806401392838e+01°)
1.10917481526240e+00	(-4.92845796174347e+01dB,-9.02812870930053e+01°)
1.11173172728159e+00	(-4.92645798533753e+01dB,-9.02819355381880e+01°)
1.11429453359173e+00	(-4.92445800904051e+01dB,-9.02825854782708e+01°)
1.11686324778056e+00	(-4.92245803285292e+01dB,-9.02832369167002e+01°)
1.11943788346715e+00	(-4.92045805677525e+01dB,-9.02838898569309e+01°)
1.12201845430196e+00	(-4.91845808080802e+01dB,-9.02845443024253e+01°)
1.12460497396692e+00	(-4.91645810495173e+01dB,-9.02852002566542e+01°)
1.12719745617551e+00	(-4.91445812920690e+01dB,-9.02858577230959e+01°)
1.12979591467279e+00	(-4.91245815357404e+01dB,-9.02865167052372e+01°)
1.13240036323555e+00	(-4.91045817805367e+01dB,-9.02871772065726e+01°)
1.13501081567231e+00	(-4.90845820264631e+01dB,-9.02878392306048e+01°)
1.13762728582343e+00	(-4.90645822735248e+01dB,-9.02885027808446e+01°)
1.14024978756117e+00	(-4.90445825217271e+01dB,-9.02891678608108e+01°)
1.14287833478977e+00	(-4.90245827710751e+01dB,-9.02898344740305e+01°)
1.14551294144553e+00	(-4.90045830215743e+01dB,-9.02905026240386e+01°)
1.14815362149688e+00	(-4.89845832732298e+01dB,-9.02911723143785e+01°)
1.15080038894443e+00	(-4.89645835260471e+01dB,-9.02918435486017e+01°)
1.15345325782109e+00	(-4.89445837800316e+01dB,-9.02925163302676e+01°)
1.15611224219210e+00	(-4.89245840351885e+01dB,-9.02931906629442e+01°)
1.15877735615512e+00	(-4.89045842915233e+01dB,-9.02938665502076e+01°)
1.16144861384034e+00	(-4.88845845490415e+01dB,-9.02945439956420e+01°)
1.16412602941049e+00	(-4.88645848077486e+01dB,-9.02952230028401e+01°)
1.16680961706096e+00	(-4.88445850676499e+01dB,-9.02959035754026e+01°)
1.16949939101987e+00	(-4.88245853287511e+01dB,-9.02965857169388e+01°)
1.17219536554813e+00	(-4.88045855910576e+01dB,-9.02972694310661e+01°)
1.17489755493953e+00	(-4.87845858545751e+01dB,-9.02979547214104e+01°)
1.17760597352080e+00	(-4.87645861193091e+01dB,-9.02986415916060e+01°)
1.18032063565173e+00	(-4.87445863852652e+01dB,-9.02993300452952e+01°)
1.18304155572516e+00	(-4.87245866524491e+01dB,-9.03000200861293e+01°)
1.18576874816716e+00	(-4.87045869208664e+01dB,-9.03007117177675e+01°)
1.18850222743701e+00	(-4.86845871905229e+01dB,-9.03014049438778e+01°)
1.19124200802737e+00	(-4.86645874614242e+01dB,-9.03020997681363e+01°)
1.19398810446427e+00	(-4.86445877335762e+01dB,-9.03027961942280e+01°)
1.19674053130724e+00	(-4.86245880069846e+01dB,-9.03034942258461e+01°)
1.19949930314937e+00	(-4.86045882816551e+01dB,-9.03041938666923e+01°)
1.20226443461741e+00	(-4.85845885575937e+01dB,-9.03048951204771e+01°)
1.20503594037179e+00	(-4.85645888348061e+01dB,-9.03055979909193e+01°)
1.20781383510677e+00	(-4.85445891132983e+01dB,-9.03063024817464e+01°)
1.21059813355048e+00	(-4.85245893930761e+01dB,-9.03070085966945e+01°)
1.21338885046497e+00	(-4.85045896741455e+01dB,-9.03077163395083e+01°)
1.21618600064636e+00	(-4.84845899565126e+01dB,-9.03084257139411e+01°)
1.21898959892486e+00	(-4.84645902401831e+01dB,-9.03091367237549e+01°)
1.22179966016487e+00	(-4.84445905251632e+01dB,-9.03098493727203e+01°)
1.22461619926504e+00	(-4.84245908114590e+01dB,-9.03105636646167e+01°)
1.22743923115840e+00	(-4.84045910990764e+01dB,-9.03112796032323e+01°)
1.23026877081238e+00	(-4.83845913880217e+01dB,-9.03119971923637e+01°)
1.23310483322890e+00	(-4.83645916783008e+01dB,-9.03127164358167e+01°)
1.23594743344450e+00	(-4.83445919699201e+01dB,-9.03134373374054e+01°)
1.23879658653036e+00	(-4.83245922628856e+01dB,-9.03141599009532e+01°)
1.24165230759240e+00	(-4.83045925572036e+01dB,-9.03148841302919e+01°)
1.24451461177138e+00	(-4.82845928528803e+01dB,-9.03156100292623e+01°)
1.24738351424294e+00	(-4.82645931499221e+01dB,-9.03163376017142e+01°)
1.25025903021771e+00	(-4.82445934483351e+01dB,-9.03170668515061e+01°)
1.25314117494141e+00	(-4.82245937481258e+01dB,-9.03177977825053e+01°)
1.25602996369487e+00	(-4.82045940493005e+01dB,-9.03185303985884e+01°)
1.25892541179416e+00	(-4.81845943518656e+01dB,-9.03192647036405e+01°)
1.26182753459066e+00	(-4.81645946558275e+01dB,-9.03200007015560e+01°)
1.26473634747114e+00	(-4.81445949611927e+01dB,-9.03207383962381e+01°)
1.26765186585784e+00	(-4.81245952679676e+01dB,-9.03214777915991e+01°)
1.27057410520853e+00	(-4.81045955761588e+01dB,-9.03222188915603e+01°)
1.27350308101665e+00	(-4.80845958857727e+01dB,-9.03229617000519e+01°)
1.27643880881134e+00	(-4.80645961968160e+01dB,-9.03237062210133e+01°)
1.27938130415752e+00	(-4.80445965092953e+01dB,-9.03244524583932e+01°)
1.28233058265601e+00	(-4.80245968232172e+01dB,-9.03252004161489e+01°)
1.28528665994361e+00	(-4.80045971385883e+01dB,-9.03259500982473e+01°)
1.28824955169313e+00	(-4.79845974554153e+01dB,-9.03267015086643e+01°)
1.29121927361353e+00	(-4.79645977737051e+01dB,-9.03274546513848e+01°)
1.29419584144998e+00	(-4.79445980934642e+01dB,-9.03282095304030e+01°)
1.29717927098395e+00	(-4.79245984146996e+01dB,-9.03289661497225e+01°)
1.30016957803328e+00	(-4.79045987374179e+01dB,-9.03297245133559e+01°)
1.30316677845229e+00	(-4.78845990616261e+01dB,-9.03304846253251e+01°)
1.30617088813183e+00	(-4.78645993873311e+01dB,-9.03312464896613e+01°)
1.30918192299940e+00	(-4.78445997145398e+01dB,-9.03320101104051e+01°)
1.31219989901919e+00	(-4.78246000432590e+01dB,-9.03327754916063e+01°)
1.31522483219223e+00	(-4.78046003734959e+01dB,-9.03335426373241e+01°)
1.31825673855640e+00	(-4.77846007052573e+01dB,-9.03343115516270e+01°)
1.32129563418657e+00	(-4.77646010385503e+01dB,-9.03350822385928e+01°)
1.32434153519466e+00	(-4.77446013733821e+01dB,-9.03358547023090e+01°)
1.32739445772973e+00	(-4.77246017097596e+01dB,-9.03366289468724e+01°)
1.33045441797808e+00	(-4.77046020476901e+01dB,-9.03374049763890e+01°)
1.33352143216332e+00	(-4.76846023871807e+01dB,-9.03381827949746e+01°)
1.33659551654643e+00	(-4.76646027282386e+01dB,-9.03389624067544e+01°)
1.33967668742593e+00	(-4.76446030708710e+01dB,-9.03397438158630e+01°)
1.34276496113785e+00	(-4.76246034150853e+01dB,-9.03405270264448e+01°)
1.34586035405594e+00	(-4.76046037608887e+01dB,-9.03413120426534e+01°)
1.34896288259164e+00	(-4.75846041082886e+01dB,-9.03420988686522e+01°)
1.35207256319427e+00	(-4.75646044572923e+01dB,-9.03428875086143e+01°)
1.35518941235103e+00	(-4.75446048079072e+01dB,-9.03436779667221e+01°)
1.35831344658714e+00	(-4.75246051601409e+01dB,-9.03444702471681e+01°)
1.36144468246594e+00	(-4.75046055140006e+01dB,-9.03452643541540e+01°)
1.36458313658891e+00	(-4.74846058694941e+01dB,-9.03460602918915e+01°)
1.36772882559584e+00	(-4.74646062266288e+01dB,-9.03468580646020e+01°)
1.37088176616484e+00	(-4.74446065854122e+01dB,-9.03476576765164e+01°)
1.37404197501251e+00	(-4.74246069458521e+01dB,-9.03484591318757e+01°)
1.37720946889394e+00	(-4.74046073079559e+01dB,-9.03492624349304e+01°)
1.38038426460287e+00	(-4.73846076717316e+01dB,-9.03500675899410e+01°)
1.38356637897177e+00	(-4.73646080371867e+01dB,-9.03508746011777e+01°)
1.38675582887188e+00	(-4.73446084043290e+01dB,-9.03516834729206e+01°)
1.38995263121334e+00	(-4.73246087731663e+01dB,-9.03524942094596e+01°)
1.39315680294529e+00	(-4.73046091437064e+01dB,-9.03533068150947e+01°)
1.39636836105593e+00	(-4.72846095159572e+01dB,-9.03541212941356e+01°)
1.39958732257261e+00	(-4.72646098899266e+01dB,-9.03549376509021e+01°)
1.40281370456195e+00	(-4.72446102656225e+01dB,-9.03557558897239e+01°)
1.40604752412990e+00	(-4.72246106430529e+01dB,-9.03565760149405e+01°)
1.40928879842186e+00	(-4.72046110222259e+01dB,-9.03573980309018e+01°)
1.41253754462274e+00	(-4.71846114031493e+01dB,-9.03582219419675e+01°)
1.41579377995707e+00	(-4.71646117858315e+01dB,-9.03590477525073e+01°)
1.41905752168908e+00	(-4.71446121702803e+01dB,-9.03598754669012e+01°)
1.42232878712281e+00	(-4.71246125565041e+01dB,-9.03607050895390e+01°)
1.42560759360218e+00	(-4.71046129445110e+01dB,-9.03615366248209e+01°)
1.42889395851109e+00	(-4.70846133343093e+01dB,-9.03623700771573e+01°)
1.43218789927353e+00	(-4.70646137259072e+01dB,-9.03632054509683e+01°)
1.43548943335364e+00	(-4.70446141193130e+01dB,-9.03640427506848e+01°)
1.43879857825583e+00	(-4.70246145145350e+01dB,-9.03648819807475e+01°)
1.44211535152486e+00	(-4.70046149115818e+01dB,-9.03657231456076e+01°)
1.44543977074592e+00	(-4.69846153104616e+01dB,-9.03665662497264e+01°)
1.44877185354475e+00	(-4.69646157111830e+01dB,-9.03674112975756e+01°)
1.45211161758773e+00	(-4.69446161137545e+01dB,-9.03682582936371e+01°)
1.45545908058195e+00	(-4.69246165181845e+01dB,-9.03691072424032e+01°)
1.45881426027534e+00	(-4.69046169244818e+01dB,-9.03699581483767e+01°)
1.46217717445671e+00	(-4.68846173326548e+01dB,-9.03708110160706e+01°)
1.46554784095590e+00	(-4.68646177427123e+01dB,-9.03716658500083e+01°)
1.46892627764385e+00	(-4.68446181546630e+01dB,-9.03725226547238e+01°)
1.47231250243271e+00	(-4.68246185685156e+01dB,-9.03733814347615e+01°)
1.47570653327588e+00	(-4.68046189842789e+01dB,-9.03742421946761e+01°)
1.47910838816819e+00	(-4.67846194019618e+01dB,-9.03751049390332e+01°)
1.48251808514594e+00	(-4.67646198215730e+01dB,-9.03759696724085e+01°)
1.48593564228699e+00	(-4.67446202431215e+01dB,-9.03768363993886e+01°)
1.48936107771090e+00	(-4.67246206666162e+01dB,-9.03777051245705e+01°)
1.49279440957898e+00	(-4.67046210920662e+01dB,-9.03785758525617e+01°)
1.49623565609442e+00	(-4.66846215194804e+01dB,-9.03794485879807e+01°)
1.49968483550236e+00	(-4.66646219488680e+01dB,-9.03803233354563e+01°)
1.50314196609001e+00	(-4.66446223802380e+01dB,-9.03812000996282e+01°)
1.50660706618673e+00	(-4.66246228135995e+01dB,-9.03820788851466e+01°)
1.51008015416413e+00	(-4.66046232489619e+01dB,-9.03829596966726e+01°)
1.51356124843619e+00	(-4.65846236863343e+01dB,-9.03838425388780e+01°)
1.51705036745932e+00	(-4.65646241257260e+01dB,-9.03847274164454e+01°)
1.52054752973248e+00	(-4.65446245671464e+01dB,-9.03856143340682e+01°)
1.52405275379728e+00	(-4.65246250106047e+01dB,-9.03865032964506e+01°)
1.52756605823806e+00	(-4.65046254561105e+01dB,-9.03873943083076e+01°)
1.53108746168201e+00	(-4.64846259036732e+01dB,-9.03882873743652e+01°)
1.53461698279928e+00	(-4.64646263533022e+01dB,-9.03891824993603e+01°)
1.53815464030302e+00	(-4.64446268050071e+01dB,-9.03900796880405e+01°)
1.54170045294954e+00	(-4.64246272587976e+01dB,-9.03909789451648e+01°)
1.54525443953840e+00	(-4.64046277146831e+01dB,-9.03918802755027e+01°)
1.54881661891247e+00	(-4.63846281726735e+01dB,-9.03927836838350e+01°)
1.55238700995807e+00	(-4.63646286327784e+01dB,-9.03936891749535e+01°)
1.55596563160506e+00	(-4.63446290950076e+01dB,-9.03945967536609e+01°)
1.55955250282694e+00	(-4.63246295593709e+01dB,-9.03955064247711e+01°)
1.56314764264094e+00	(-4.63046300258782e+01dB,-9.03964181931092e+01°)
1.56675107010813e+00	(-4.62846304945393e+01dB,-9.03973320635112e+01°)
1.57036280433354e+00	(-4.62646309653642e+01dB,-9.03982480408245e+01°)
1.57398286446620e+00	(-4.62446314383630e+01dB,-9.03991661299076e+01°)
1.57761126969933e+00	(-4.62246319135456e+01dB,-9.04000863356300e+01°)
1.58124803927037e+00	(-4.62046323909221e+01dB,-9.04010086628728e+01°)
1.58489319246110e+00	(-4.61846328705026e+01dB,-9.04019331165281e+01°)
1.58854674859776e+00	(-4.61646333522974e+01dB,-9.04028597014994e+01°)
1.59220872705115e+00	(-4.61446338363167e+01dB,-9.04037884227015e+01°)
1.59587914723672e+00	(-4.61246343225707e+01dB,-9.04047192850604e+01°)
1.59955802861465e+00	(-4.61046348110697e+01dB,-9.04056522935138e+01°)
1.60324539069002e+00	(-4.60846353018242e+01dB,-9.04065874530104e+01°)
1.60694125301286e+00	(-4.60646357948445e+01dB,-9.04075247685107e+01°)
1.61064563517825e+00	(-4.60446362901411e+01dB,-9.04084642449862e+01°)
1.61435855682647e+00	(-4.60246367877245e+01dB,-9.04094058874204e+01°)
1.61808003764305e+00	(-4.60046372876054e+01dB,-9.04103497008078e+01°)
1.62181009735891e+00	(-4.59846377897941e+01dB,-9.04112956901548e+01°)
1.62554875575047e+00	(-4.59646382943016e+01dB,-9.04122438604791e+01°)
1.62929603263970e+00	(-4.59446388011384e+01dB,-9.04131942168102e+01°)
1.63305194789432e+00	(-4.59246393103153e+01dB,-9.04141467641890e+01°)
1.63681652142779e+00	(-4.59046398218432e+01dB,-9.04151015076681e+01°)
1.64058977319952e+00	(-4.58846403357328e+01dB,-9.04160584523118e+01°)
1.64437172321491e+00	(-4.58646408519951e+01dB,-9.04170176031961e+01°)
1.64816239152549e+00	(-4.58446413706411e+01dB,-9.04179789654087e+01°)
1.65196179822900e+00	(-4.58246418916817e+01dB,-9.04189425440489e+01°)
1.65576996346951e+00	(-4.58046424151280e+01dB,-9.04199083442280e+01°)
1.65958690743754e+00	(-4.57846429409912e+01dB,-9.04208763710690e+01°)
1.66341265037015e+00	(-4.57646434692823e+01dB,-9.04218466297066e+01°)
1.66724721255104e+00	(-4.57446440000127e+01dB,-9.04228191252876e+01°)
1.67109061431069e+00	(-4.57246445331935e+01dB,-9.04237938629704e+01°)
1.67494287602642e+00	(-4.57046450688361e+01dB,-9.04247708479255e+01°)
1.67880401812254e+00	(-4.56846456069518e+01dB,-9.04257500853352e+01°)
1.68267406107045e+00	(-4.56646461475521e+01dB,-9.04267315803939e+01°)
1.68655302538872e+00	(-4.56446466906485e+01dB,-9.04277153383078e+01°)
1.69044093164324e+00	(-4.56246472362525e+01dB,-9.04287013642954e+01°)
1.69433780044731e+00	(-4.56046477843756e+01dB,-9.04296896635870e+01°)
1.69824365246172e+00	(-4.55846483350295e+01dB,-9.04306802414250e+01°)
1.70215850839493e+00	(-4.55646488882259e+01dB,-9.04316731030640e+01°)
1.70608238900310e+00	(-4.55446494439765e+01dB,-9.04326682537707e+01°)
1.71001531509027e+00	(-4.55246500022931e+01dB,-9.04336656988238e+01°)
1.71395730750840e+00	(-4.55046505631877e+01dB,-9.04346654435143e+01°)
1.71790838715757e+00	(-4.54846511266720e+01dB,-9.04356674931456e+01°)
1.72186857498599e+00	(-4.54646516927580e+01dB,-9.04366718530330e+01°)
1.72583789199018e+00	(-4.54446522614578e+01dB,-9.04376785285043e+01°)
1.72981635921508e+00	(-4.54246528327835e+01dB,-9.04386875248994e+01°)
1.73380399775412e+00	(-4.54046534067471e+01dB,-9.04396988475708e+01°)
1.73780082874935e+00	(-4.53846539833608e+01dB,-9.04407125018830e+01°)
1.74180687339159e+00	(-4.53646545626370e+01dB,-9.04417284932133e+01°)
1.74582215292048e+00	(-4.53446551445878e+01dB,-9.04427468269511e+01°)
1.74984668862463e+00	(-4.53246557292256e+01dB,-9.04437675084983e+01°)
1.75388050184174e+00	(-4.53046563165629e+01dB,-9.04447905432692e+01°)
1.75792361395867e+00	(-4.52846569066121e+01dB,-9.04458159366909e+01°)
1.76197604641161e+00	(-4.52646574993858e+01dB,-9.04468436942026e+01°)
1.76603782068614e+00	(-4.52446580948965e+01dB,-9.04478738212564e+01°)
1.77010895831740e+00	(-4.52246586931568e+01dB,-9.04489063233168e+01°)
1.77418948089014e+00	(-4.52046592941795e+01dB,-9.04499412058611e+01°)
1.77827941003890e+00	(-4.51846598979774e+01dB,-9.04509784743788e+01°)
1.78237876744807e+00	(-4.51646605045632e+01dB,-9.04520181343727e+01°)
1.78648757485203e+00	(-4.51446611139498e+01dB,-9.04530601913578e+01°)
1.79060585403527e+00	(-4.51246617261501e+01dB,-9.04541046508620e+01°)
1.79473362683250e+00	(-4.51046623411773e+01dB,-9.04551515184260e+01°)
1.79887091512876e+00	(-4.50846629590442e+01dB,-9.04562007996033e+01°)
1.80301774085954e+00	(-4.50646635797640e+01dB,-9.04572524999601e+01°)
1.80717412601090e+00	(-4.50446642033500e+01dB,-9.04583066250756e+01°)
1.81134009261958e+00	(-4.50246648298153e+01dB,-9.04593631805417e+01°)
1.81551566277311e+00	(-4.50046654591733e+01dB,-9.04604221719633e+01°)
1.81970085860996e+00	(-4.49846660914372e+01dB,-9.04614836049583e+01°)
1.82389570231961e+00	(-4.49646667266206e+01dB,-9.04625474851575e+01°)
1.82810021614272e+00	(-4.49446673647369e+01dB,-9.04636138182047e+01°)
1.83231442237119e+00	(-4.49246680057997e+01dB,-9.04646826097567e+01°)
1.83653834334832e+00	(-4.49046686498225e+01dB,-9.04657538654834e+01°)
1.84077200146893e+00	(-4.48846692968191e+01dB,-9.04668275910677e+01°)
1.84501541917945e+00	(-4.48646699468032e+01dB,-9.04679037922059e+01°)
1.84926861897805e+00	(-4.48446705997885e+01dB,-9.04689824746071e+01°)
1.85353162341478e+00	(-4.48246712557890e+01dB,-9.04700636439937e+01°)
1.85780445509167e+00	(-4.48046719148185e+01dB,-9.04711473061013e+01°)
1.86208713666284e+00	(-4.47846725768911e+01dB,-9.04722334666789e+01°)
1.86637969083464e+00	(-4.47646732420209e+01dB,-9.04733221314885e+01°)
1.87068214036577e+00	(-4.47446739102218e+01dB,-9.04744133063057e+01°)
1.87499450806739e+00	(-4.47246745815082e+01dB,-9.04755069969191e+01°)
1.87931681680324e+00	(-4.47046752558943e+01dB,-9.04766032091309e+01°)
1.88364908948977e+00	(-4.46846759333944e+01dB,-9.04777019487566e+01°)
1.88799134909627e+00	(-4.46646766140228e+01dB,-9.04788032216253e+01°)
1.89234361864495e+00	(-4.46446772977941e+01dB,-9.04799070335792e+01°)
1.89670592121112e+00	(-4.46246779847228e+01dB,-9.04810133904743e+01°)
1.90107827992327e+00	(-4.46046786748233e+01dB,-9.04821222981800e+01°)
1.90546071796322e+00	(-4.45846793681105e+01dB,-9.04832337625792e+01°)
1.90985325856621e+00	(-4.45646800645989e+01dB,-9.04843477895685e+01°)
1.91425592502106e+00	(-4.45446807643035e+01dB,-9.04854643850581e+01°)
1.91866874067026e+00	(-4.45246814672390e+01dB,-9.04865835549717e+01°)
1.92309172891013e+00	(-4.45046821734204e+01dB,-9.04877053052468e+01°)
