time	V(n003)	I(C1)
0.000000000000000e+00	-5.000000e+00	-5.000000e-22
1.000000003627494e-15	-5.000000e+00	1.000008e-06
2.000000007254987e-15	-5.000000e+00	2.000015e-06
4.000000014509975e-15	-5.000000e+00	3.999972e-06
8.000000029019950e-15	-5.000000e+00	8.000003e-06
1.600000005803990e-14	-5.000000e+00	1.599999e-05
3.200000011607980e-14	-5.000000e+00	3.199999e-05
6.400000023215960e-14	-5.000000e+00	6.400000e-05
1.000000000000000e-13	-5.000000e+00	9.999999e-05
1.000000000000000e-12	-4.999999e+00	9.999999e-05
1.227232347308558e-08	-4.987735e+00	9.987735e-05
2.454364694617117e-08	-4.975486e+00	9.975486e-05
3.681497041925675e-08	-4.963253e+00	9.963253e-05
4.908629389234233e-08	-4.951034e+00	9.951034e-05
6.135761736542792e-08	-4.938830e+00	9.938830e-05
7.362894083851350e-08	-4.926641e+00	9.926642e-05
8.590026431159906e-08	-4.914468e+00	9.914468e-05
1.717996105431984e-07	-4.829667e+00	9.829667e-05
3.435983030063971e-07	-4.662233e+00	9.662233e-05
6.871956879327945e-07	-4.335848e+00	9.335848e-05
1.374390457785589e-06	-3.715605e+00	8.715606e-05
2.350952957785590e-06	-2.904096e+00	7.904096e-05
3.327515457785590e-06	-2.168147e+00	7.168147e-05
4.304077957785590e-06	-1.500722e+00	6.500722e-05
5.280640457785590e-06	-8.954404e-01	5.895440e-05
6.257202957785590e-06	-3.465167e-01	5.346517e-05
7.233765457785590e-06	1.512967e-01	4.848703e-05
8.210327957785591e-06	6.027589e-01	4.397241e-05
9.186890457785591e-06	1.012185e+00	3.987814e-05
1.016345295778559e-05	1.383490e+00	3.616510e-05
1.114001545778559e-05	1.720223e+00	3.279777e-05
1.211657795778559e-05	2.025603e+00	2.974397e-05
1.309314045778559e-05	2.302548e+00	2.697452e-05
1.406970295778560e-05	2.553708e+00	2.446292e-05
1.504626545778560e-05	2.781482e+00	2.218518e-05
1.602282795778560e-05	2.988048e+00	2.011952e-05
1.699939045778560e-05	3.175380e+00	1.824620e-05
1.797595295778560e-05	3.345270e+00	1.654730e-05
1.895251545778560e-05	3.499342e+00	1.500658e-05
1.992907795778560e-05	3.639068e+00	1.360932e-05
2.090564045778560e-05	3.765784e+00	1.234216e-05
2.188220295778560e-05	3.880702e+00	1.119298e-05
2.285876545778560e-05	3.984920e+00	1.015080e-05
2.383532795778560e-05	4.079433e+00	9.205663e-06
2.481189045778561e-05	4.165147e+00	8.348526e-06
2.578845295778561e-05	4.242880e+00	7.571195e-06
2.676501545778561e-05	4.313376e+00	6.866242e-06
2.774157795778561e-05	4.377307e+00	6.226927e-06
2.871814045778561e-05	4.435286e+00	5.647139e-06
2.969470295778561e-05	4.487866e+00	5.121335e-06
3.067126545778561e-05	4.535551e+00	4.644487e-06
3.164782795778561e-05	4.578796e+00	4.212040e-06
3.262439045778561e-05	4.618014e+00	3.819858e-06
3.360095295778561e-05	4.653581e+00	3.464191e-06
3.457751545778561e-05	4.685836e+00	3.141641e-06
3.555407795778561e-05	4.715088e+00	2.849123e-06
3.653064045778561e-05	4.741616e+00	2.583841e-06
3.750720295778561e-05	4.765674e+00	2.343260e-06
3.848376545778561e-05	4.787492e+00	2.125080e-06
3.946032795778561e-05	4.807279e+00	1.927214e-06
4.043689045778562e-05	4.825223e+00	1.747771e-06
4.141345295778562e-05	4.841496e+00	1.585036e-06
4.239001545778562e-05	4.856255e+00	1.437454e-06
4.336657795778562e-05	4.869639e+00	1.303613e-06
4.434314045778562e-05	4.881777e+00	1.182234e-06
4.531970295778562e-05	4.892785e+00	1.072156e-06
4.629626545778562e-05	4.902767e+00	9.723276e-07
4.727282795778562e-05	4.911820e+00	8.817943e-07
4.824939045778562e-05	4.920031e+00	7.996906e-07
5.000000009999999e-05	4.932881e+00	6.711853e-07
5.000000010999999e-05	4.932881e+00	-9.328804e-06
5.000000012999999e-05	4.932881e+00	-2.932881e-05
5.000000019999999e-05	4.932881e+00	-9.932881e-05
5.000059938513234e-05	4.932286e+00	-9.932286e-05
5.000119857026467e-05	4.931691e+00	-9.931691e-05
5.000179775539702e-05	4.931096e+00	-9.931096e-05
5.000239694052936e-05	4.930501e+00	-9.930501e-05
5.000299612566171e-05	4.929906e+00	-9.929906e-05
5.000359531079404e-05	4.929311e+00	-9.929311e-05
5.000419449592639e-05	4.928716e+00	-9.928716e-05
5.002276927045757e-05	4.910291e+00	-9.910291e-05
5.004134404498876e-05	4.891900e+00	-9.891900e-05
5.005991881951995e-05	4.873543e+00	-9.873543e-05
5.007849359405113e-05	4.855220e+00	-9.855220e-05
5.009706836858232e-05	4.836931e+00	-9.836931e-05
5.011564314311351e-05	4.818676e+00	-9.818676e-05
5.013421791764470e-05	4.800455e+00	-9.800455e-05
5.026843564328940e-05	4.669792e+00	-9.669792e-05
5.053687109457881e-05	4.413659e+00	-9.413659e-05
5.107374199715762e-05	3.921478e+00	-8.921479e-05
5.205030449715762e-05	3.090801e+00	-8.090801e-05
5.302686699715762e-05	2.337467e+00	-7.337467e-05
5.400342949715762e-05	1.654277e+00	-6.654277e-05
5.497999199715762e-05	1.034698e+00	-6.034698e-05
5.595655449715762e-05	4.728079e-01	-5.472808e-05
5.693311699715762e-05	-3.676452e-02	-4.963236e-05
5.790967949715762e-05	-4.988907e-01	-4.501109e-05
5.888624199715762e-05	-9.179884e-01	-4.082012e-05
5.986280449715762e-05	-1.298064e+00	-3.701936e-05
6.083936699715762e-05	-1.642751e+00	-3.357249e-05
6.181592949715762e-05	-1.955344e+00	-3.044656e-05
6.279249199715762e-05	-2.238831e+00	-2.761169e-05
6.376905449715762e-05	-2.495924e+00	-2.504077e-05
6.474561699715762e-05	-2.729078e+00	-2.270922e-05
6.572217949715762e-05	-2.940523e+00	-2.059477e-05
6.669874199715762e-05	-3.132281e+00	-1.867719e-05
6.767530449715762e-05	-3.306184e+00	-1.693816e-05
6.865186699715762e-05	-3.463895e+00	-1.536105e-05
6.962842949715762e-05	-3.606921e+00	-1.393079e-05
7.060499199715763e-05	-3.736631e+00	-1.263369e-05
7.158155449715763e-05	-3.854263e+00	-1.145737e-05
7.255811699715763e-05	-3.960942e+00	-1.039058e-05
7.353467949715763e-05	-4.057689e+00	-9.423112e-06
7.451124199715763e-05	-4.145427e+00	-8.545728e-06
7.548780449715763e-05	-4.224997e+00	-7.750036e-06
7.646436699715763e-05	-4.297157e+00	-7.028431e-06
7.744092949715763e-05	-4.362598e+00	-6.374015e-06
7.841749199715763e-05	-4.421947e+00	-5.780531e-06
7.939405449715763e-05	-4.475770e+00	-5.242307e-06
8.037061699715763e-05	-4.524580e+00	-4.754196e-06
8.134717949715764e-05	-4.568847e+00	-4.311534e-06
8.232374199715764e-05	-4.608991e+00	-3.910087e-06
8.330030449715764e-05	-4.645398e+00	-3.546020e-06
8.427686699715764e-05	-4.678415e+00	-3.215850e-06
8.525342949715764e-05	-4.708358e+00	-2.916423e-06
8.622999199715764e-05	-4.735513e+00	-2.644875e-06
8.720655449715764e-05	-4.760139e+00	-2.398611e-06
8.818311699715764e-05	-4.782472e+00	-2.175277e-06
8.915967949715764e-05	-4.802726e+00	-1.972737e-06
9.013624199715764e-05	-4.821095e+00	-1.789056e-06
9.111280449715764e-05	-4.837752e+00	-1.622477e-06
9.208936699715764e-05	-4.852859e+00	-1.471408e-06
9.306592949715765e-05	-4.866560e+00	-1.334406e-06
9.404249199715765e-05	-4.878984e+00	-1.210159e-06
9.501905449715765e-05	-4.890252e+00	-1.097482e-06
9.599561699715765e-05	-4.900470e+00	-9.952952e-07
9.697217949715765e-05	-4.909738e+00	-9.026234e-07
9.794874199715765e-05	-4.918142e+00	-8.185802e-07
9.892530449715765e-05	-4.925764e+00	-7.423623e-07
9.999999999999999e-05	-4.933333e+00	-6.666669e-07
1.000000000100000e-04	-4.933333e+00	9.333336e-06
1.000000000300000e-04	-4.933333e+00	2.933334e-05
1.000000001000000e-04	-4.933333e+00	9.933334e-05
1.000011984714887e-04	-4.932143e+00	9.932143e-05
1.000023968429775e-04	-4.930953e+00	9.930953e-05
1.000035952144662e-04	-4.929763e+00	9.929763e-05
1.000047935859550e-04	-4.928573e+00	9.928573e-05
1.000059919574437e-04	-4.927383e+00	9.927383e-05
1.000071903289325e-04	-4.926193e+00	9.926193e-05
1.000083887004212e-04	-4.925004e+00	9.925004e-05
1.000671089593698e-04	-4.866895e+00	9.866895e-05
1.001342178267397e-04	-4.800901e+00	9.800900e-05
1.002684355614793e-04	-4.670232e+00	9.670232e-05
1.005368710309586e-04	-4.414087e+00	9.414087e-05
1.010737419699172e-04	-3.921884e+00	8.921884e-05
1.020503044699172e-04	-3.091169e+00	8.091169e-05
1.030268669699172e-04	-2.337801e+00	7.337801e-05
1.040034294699172e-04	-1.654579e+00	6.654579e-05
1.049799919699172e-04	-1.034972e+00	6.034972e-05
1.059565544699172e-04	-4.730569e-01	5.473057e-05
1.069331169699172e-04	3.653869e-02	4.963461e-05
1.079096794699172e-04	4.986859e-01	4.501314e-05
1.088862419699172e-04	9.178027e-01	4.082197e-05
1.098628044699172e-04	1.297896e+00	3.702104e-05
1.108393669699172e-04	1.642598e+00	3.357402e-05
1.118159294699172e-04	1.955205e+00	3.044795e-05
1.127924919699172e-04	2.238706e+00	2.761294e-05
1.137690544699172e-04	2.495810e+00	2.504191e-05
1.147456169699172e-04	2.728974e+00	2.271026e-05
1.157221794699172e-04	2.940429e+00	2.059571e-05
1.166987419699172e-04	3.132196e+00	1.867804e-05
1.176753044699172e-04	3.306107e+00	1.693893e-05
1.186518669699172e-04	3.463825e+00	1.536175e-05
1.196284294699172e-04	3.606858e+00	1.393142e-05
1.206049919699172e-04	3.736573e+00	1.263427e-05
1.215815544699172e-04	3.854211e+00	1.145789e-05
1.225581169699172e-04	3.960895e+00	1.039105e-05
1.235346794699172e-04	4.057646e+00	9.423541e-06
1.245112419699172e-04	4.145389e+00	8.546116e-06
1.254878044699172e-04	4.224961e+00	7.750388e-06
1.264643669699172e-04	4.297125e+00	7.028751e-06
1.274409294699172e-04	4.362569e+00	6.374305e-06
1.284174919699172e-04	4.421921e+00	5.780794e-06
1.293940544699172e-04	4.475746e+00	5.242545e-06
1.303706169699172e-04	4.524559e+00	4.754413e-06
1.313471794699172e-04	4.568827e+00	4.311730e-06
1.323237419699172e-04	4.608974e+00	3.910265e-06
1.333003044699172e-04	4.645382e+00	3.546181e-06
1.342768669699172e-04	4.678401e+00	3.215996e-06
1.352534294699172e-04	4.708344e+00	2.916555e-06
1.362299919699172e-04	4.735500e+00	2.644995e-06
1.372065544699172e-04	4.760128e+00	2.398720e-06
1.381831169699172e-04	4.782463e+00	2.175376e-06
1.391596794699172e-04	4.802717e+00	1.972827e-06
1.401362419699172e-04	4.821086e+00	1.789137e-06
1.411128044699172e-04	4.837745e+00	1.622551e-06
1.420893669699172e-04	4.852852e+00	1.471475e-06
1.430659294699172e-04	4.866553e+00	1.334466e-06
1.440424919699172e-04	4.878979e+00	1.210214e-06
1.450190544699172e-04	4.890247e+00	1.097531e-06
1.459956169699172e-04	4.900466e+00	9.953404e-07
1.469721794699172e-04	4.909734e+00	9.026645e-07
1.479487419699172e-04	4.918138e+00	8.186175e-07
1.489253044699172e-04	4.925760e+00	7.423961e-07
1.500000001000000e-04	4.933331e+00	6.666814e-07
1.500000001100000e-04	4.933331e+00	-9.333307e-06
1.500000001300000e-04	4.933331e+00	-2.933331e-05
1.500000002000000e-04	4.933330e+00	-9.933330e-05
1.500011985714887e-04	4.932140e+00	-9.932140e-05
1.500023969429775e-04	4.930950e+00	-9.930950e-05
1.500035953144662e-04	4.929760e+00	-9.929760e-05
1.500047936859550e-04	4.928570e+00	-9.928570e-05
1.500059920574437e-04	4.927380e+00	-9.927380e-05
1.500071904289325e-04	4.926191e+00	-9.926191e-05
1.500083888004212e-04	4.925001e+00	-9.925001e-05
1.500671090593698e-04	4.866892e+00	-9.866892e-05
1.501342179267397e-04	4.800898e+00	-9.800898e-05
1.502684356614793e-04	4.670229e+00	-9.670229e-05
1.505368711309586e-04	4.414084e+00	-9.414084e-05
1.510737420699172e-04	3.921882e+00	-8.921882e-05
1.520503045699172e-04	3.091166e+00	-8.091166e-05
1.530268670699172e-04	2.337799e+00	-7.337799e-05
1.540034295699172e-04	1.654577e+00	-6.654578e-05
1.549799920699172e-04	1.034971e+00	-6.034971e-05
1.559565545699172e-04	4.730552e-01	-5.473055e-05
1.569331170699172e-04	-3.654021e-02	-4.963460e-05
1.579096795699172e-04	-4.986873e-01	-4.501313e-05
1.588862420699172e-04	-9.178039e-01	-4.082196e-05
1.598628045699172e-04	-1.297897e+00	-3.702103e-05
1.608393670699172e-04	-1.642599e+00	-3.357401e-05
1.618159295699172e-04	-1.955206e+00	-3.044794e-05
1.627924920699172e-04	-2.238707e+00	-2.761293e-05
1.637690545699172e-04	-2.495810e+00	-2.504190e-05
1.647456170699172e-04	-2.728975e+00	-2.271025e-05
1.657221795699172e-04	-2.940430e+00	-2.059570e-05
1.666987420699172e-04	-3.132196e+00	-1.867804e-05
1.676753045699172e-04	-3.306107e+00	-1.693893e-05
1.686518670699172e-04	-3.463825e+00	-1.536175e-05
1.696284295699172e-04	-3.606858e+00	-1.393142e-05
1.706049920699172e-04	-3.736573e+00	-1.263426e-05
1.715815545699172e-04	-3.854211e+00	-1.145789e-05
1.725581170699172e-04	-3.960895e+00	-1.039105e-05
1.735346795699172e-04	-4.057646e+00	-9.423538e-06
1.745112420699172e-04	-4.145389e+00	-8.546113e-06
1.754878045699172e-04	-4.224961e+00	-7.750386e-06
1.764643670699172e-04	-4.297125e+00	-7.028749e-06
1.774409295699172e-04	-4.362570e+00	-6.374303e-06
1.784174920699172e-04	-4.421921e+00	-5.780792e-06
1.793940545699172e-04	-4.475746e+00	-5.242543e-06
1.803706170699172e-04	-4.524559e+00	-4.754411e-06
1.813471795699172e-04	-4.568827e+00	-4.311728e-06
1.823237420699172e-04	-4.608974e+00	-3.910264e-06
1.833003045699172e-04	-4.645382e+00	-3.546180e-06
1.842768670699172e-04	-4.678401e+00	-3.215995e-06
1.852534295699172e-04	-4.708344e+00	-2.916554e-06
1.862299920699172e-04	-4.735500e+00	-2.644995e-06
1.872065545699172e-04	-4.760128e+00	-2.398720e-06
1.881831170699172e-04	-4.782463e+00	-2.175375e-06
1.891596795699172e-04	-4.802717e+00	-1.972826e-06
1.901362420699172e-04	-4.821086e+00	-1.789136e-06
1.911128045699172e-04	-4.837745e+00	-1.622550e-06
1.920893670699172e-04	-4.852852e+00	-1.471475e-06
1.930659295699172e-04	-4.866553e+00	-1.334466e-06
1.940424920699172e-04	-4.878979e+00	-1.210214e-06
1.950190545699172e-04	-4.890247e+00	-1.097531e-06
1.959956170699172e-04	-4.900466e+00	-9.953402e-07
1.969721795699172e-04	-4.909734e+00	-9.026642e-07
1.979487420699172e-04	-4.918139e+00	-8.186173e-07
1.989253045699172e-04	-4.925760e+00	-7.423959e-07
2.000000000000000e-04	-4.933331e+00	-6.667105e-07
2.000000000100000e-04	-4.933331e+00	9.333307e-06
2.000000000300000e-04	-4.933331e+00	2.933331e-05
2.000000001000000e-04	-4.933330e+00	9.933330e-05
2.000011984714887e-04	-4.932140e+00	9.932140e-05
2.000023968429775e-04	-4.930950e+00	9.930950e-05
2.000035952144662e-04	-4.929760e+00	9.929760e-05
2.000047935859550e-04	-4.928570e+00	9.928570e-05
2.000059919574437e-04	-4.927380e+00	9.927380e-05
2.000071903289325e-04	-4.926191e+00	9.926191e-05
2.000083887004212e-04	-4.925001e+00	9.925001e-05
2.000671089593698e-04	-4.866892e+00	9.866892e-05
2.001342178267396e-04	-4.800898e+00	9.800898e-05
2.002684355614793e-04	-4.670229e+00	9.670229e-05
2.005368710309586e-04	-4.414084e+00	9.414084e-05
2.010737419699172e-04	-3.921882e+00	8.921882e-05
2.020503044699172e-04	-3.091166e+00	8.091166e-05
2.030268669699172e-04	-2.337799e+00	7.337799e-05
2.040034294699172e-04	-1.654577e+00	6.654578e-05
2.049799919699172e-04	-1.034971e+00	6.034971e-05
2.059565544699172e-04	-4.730553e-01	5.473055e-05
2.069331169699172e-04	3.654020e-02	4.963460e-05
2.079096794699172e-04	4.986873e-01	4.501313e-05
2.088862419699172e-04	9.178039e-01	4.082196e-05
2.098628044699172e-04	1.297897e+00	3.702103e-05
2.108393669699172e-04	1.642599e+00	3.357401e-05
2.118159294699172e-04	1.955206e+00	3.044794e-05
2.127924919699172e-04	2.238707e+00	2.761293e-05
2.137690544699172e-04	2.495810e+00	2.504190e-05
2.147456169699172e-04	2.728975e+00	2.271025e-05
2.157221794699172e-04	2.940430e+00	2.059570e-05
2.166987419699172e-04	3.132196e+00	1.867804e-05
2.176753044699172e-04	3.306107e+00	1.693893e-05
2.186518669699172e-04	3.463825e+00	1.536175e-05
2.196284294699172e-04	3.606858e+00	1.393142e-05
2.206049919699172e-04	3.736573e+00	1.263426e-05
2.215815544699172e-04	3.854211e+00	1.145789e-05
2.225581169699172e-04	3.960895e+00	1.039105e-05
2.235346794699172e-04	4.057646e+00	9.423538e-06
2.245112419699172e-04	4.145389e+00	8.546113e-06
2.254878044699172e-04	4.224961e+00	7.750386e-06
2.264643669699172e-04	4.297125e+00	7.028749e-06
2.274409294699172e-04	4.362570e+00	6.374303e-06
2.284174919699172e-04	4.421921e+00	5.780792e-06
2.293940544699172e-04	4.475746e+00	5.242543e-06
2.303706169699172e-04	4.524559e+00	4.754411e-06
2.313471794699172e-04	4.568827e+00	4.311728e-06
2.323237419699172e-04	4.608974e+00	3.910264e-06
2.333003044699172e-04	4.645382e+00	3.546180e-06
2.342768669699172e-04	4.678401e+00	3.215995e-06
2.352534294699172e-04	4.708344e+00	2.916554e-06
2.362299919699172e-04	4.735500e+00	2.644995e-06
2.372065544699172e-04	4.760128e+00	2.398720e-06
2.381831169699172e-04	4.782463e+00	2.175375e-06
2.391596794699172e-04	4.802717e+00	1.972826e-06
2.401362419699172e-04	4.821086e+00	1.789136e-06
2.411128044699172e-04	4.837745e+00	1.622550e-06
2.420893669699172e-04	4.852852e+00	1.471475e-06
2.430659294699172e-04	4.866553e+00	1.334466e-06
2.440424919699172e-04	4.878979e+00	1.210214e-06
2.450190544699172e-04	4.890247e+00	1.097531e-06
2.459956169699172e-04	4.900466e+00	9.953402e-07
2.469721794699172e-04	4.909734e+00	9.026642e-07
2.479487419699172e-04	4.918139e+00	8.186173e-07
2.489253044699172e-04	4.925760e+00	7.423959e-07
2.500000001000000e-04	4.933331e+00	6.666814e-07
2.500000001100000e-04	4.933331e+00	-9.333278e-06
2.500000001300000e-04	4.933331e+00	-2.933329e-05
2.500000002000000e-04	4.933330e+00	-9.933329e-05
2.500011985711639e-04	4.932140e+00	-9.932139e-05
2.500023969423278e-04	4.930950e+00	-9.930950e-05
2.500035953134918e-04	4.929760e+00	-9.929760e-05
2.500047936846557e-04	4.928570e+00	-9.928571e-05
2.500059920558196e-04	4.927380e+00	-9.927381e-05
2.500071904269835e-04	4.926191e+00	-9.926191e-05
2.500083887981475e-04	4.925001e+00	-9.925001e-05
2.500671090411799e-04	4.866892e+00	-9.866892e-05
2.501342178903598e-04	4.800898e+00	-9.800898e-05
2.502684355887197e-04	4.670229e+00	-9.670229e-05
2.505368709854394e-04	4.414084e+00	-9.414084e-05
2.510737417788789e-04	3.921882e+00	-8.921882e-05
2.520503042788789e-04	3.091166e+00	-8.091167e-05
2.530268667788789e-04	2.337799e+00	-7.337799e-05
2.540034292788789e-04	1.654578e+00	-6.654578e-05
2.549799917788789e-04	1.034971e+00	-6.034971e-05
2.559565542788789e-04	4.730554e-01	-5.473055e-05
2.569331167788789e-04	-3.654005e-02	-4.963460e-05
2.579096792788789e-04	-4.986872e-01	-4.501313e-05
2.588862417788789e-04	-9.178038e-01	-4.082196e-05
2.598628042788789e-04	-1.297897e+00	-3.702103e-05
2.608393667788789e-04	-1.642599e+00	-3.357401e-05
2.618159292788789e-04	-1.955206e+00	-3.044794e-05
2.627924917788789e-04	-2.238707e+00	-2.761294e-05
2.637690542788789e-04	-2.495810e+00	-2.504190e-05
2.647456167788789e-04	-2.728975e+00	-2.271025e-05
2.657221792788789e-04	-2.940430e+00	-2.059570e-05
2.666987417788789e-04	-3.132196e+00	-1.867804e-05
2.676753042788789e-04	-3.306107e+00	-1.693893e-05
2.686518667788789e-04	-3.463825e+00	-1.536175e-05
2.696284292788789e-04	-3.606858e+00	-1.393142e-05
2.706049917788789e-04	-3.736573e+00	-1.263426e-05
2.715815542788789e-04	-3.854211e+00	-1.145789e-05
2.725581167788789e-04	-3.960895e+00	-1.039105e-05
2.735346792788789e-04	-4.057646e+00	-9.423538e-06
2.745112417788789e-04	-4.145389e+00	-8.546114e-06
2.754878042788789e-04	-4.224961e+00	-7.750386e-06
2.764643667788789e-04	-4.297125e+00	-7.028749e-06
2.774409292788789e-04	-4.362570e+00	-6.374303e-06
2.784174917788789e-04	-4.421921e+00	-5.780792e-06
2.793940542788789e-04	-4.475746e+00	-5.242543e-06
2.803706167788789e-04	-4.524559e+00	-4.754411e-06
2.813471792788789e-04	-4.568827e+00	-4.311728e-06
2.823237417788789e-04	-4.608974e+00	-3.910264e-06
2.833003042788789e-04	-4.645382e+00	-3.546180e-06
2.842768667788789e-04	-4.678401e+00	-3.215996e-06
2.852534292788789e-04	-4.708344e+00	-2.916555e-06
2.862299917788789e-04	-4.735500e+00	-2.644995e-06
2.872065542788789e-04	-4.760128e+00	-2.398720e-06
2.881831167788789e-04	-4.782463e+00	-2.175375e-06
2.891596792788789e-04	-4.802717e+00	-1.972826e-06
2.901362417788789e-04	-4.821086e+00	-1.789137e-06
2.911128042788789e-04	-4.837745e+00	-1.622550e-06
2.920893667788789e-04	-4.852852e+00	-1.471475e-06
2.930659292788789e-04	-4.866553e+00	-1.334466e-06
2.940424917788789e-04	-4.878979e+00	-1.210214e-06
2.950190542788789e-04	-4.890247e+00	-1.097531e-06
2.959956167788789e-04	-4.900466e+00	-9.953402e-07
2.969721792788789e-04	-4.909734e+00	-9.026642e-07
2.979487417788789e-04	-4.918139e+00	-8.186173e-07
2.989253042788789e-04	-4.925760e+00	-7.423959e-07
