time	V(n003)	I(L1)
0.000000000000000e+00	-5.000495e-11	-5.000495e-08
1.000000003627494e-15	-4.899995e+00	-5.049544e-08
8.000000029019950e-15	-4.199995e+00	-5.042862e-08
1.600000005803990e-14	-3.399995e+00	-5.035166e-08
6.400000023215960e-14	1.400005e+00	-4.987646e-08
1.000000000000000e-13	5.000005e+00	-4.950494e-08
1.000000000000000e-12	5.000005e+00	-4.905494e-08
6.720067224340727e-10	4.999971e+00	2.864476e-07
1.343095364868443e-09	4.999938e+00	6.219889e-07
2.685272649737183e-09	4.999871e+00	1.293065e-06
1.073833635894962e-08	4.999468e+00	5.319330e-06
2.147575463789954e-08	4.998931e+00	1.068718e-05
4.295059119579938e-08	4.997858e+00	2.142115e-05
8.590026431159906e-08	4.995712e+00	4.288218e-05
1.717996105431984e-07	4.991422e+00	8.577659e-05
6.871956879327945e-07	4.965763e+00	3.423709e-04
2.350952957785590e-06	4.883828e+00	1.161723e-03
4.304077957785590e-06	4.789365e+00	2.106348e-03
7.233765457785590e-06	4.651086e+00	3.489138e-03
1.253510474349988e-05	4.412414e+00	5.875863e-03
1.783644402921417e-05	4.184635e+00	8.153650e-03
2.313778331492847e-05	3.967750e+00	1.032250e-02
2.843912260064276e-05	3.761759e+00	1.238241e-02
3.374046188635705e-05	3.566661e+00	1.433339e-02
3.904180117207135e-05	3.382457e+00	1.617543e-02
4.434314045778562e-05	3.209147e+00	1.790853e-02
5.341122081492848e-05	2.935511e+00	2.064489e-02
6.247930117207135e-05	2.681272e+00	2.318728e-02
7.154738152921423e-05	2.446431e+00	2.553569e-02
8.061546188635710e-05	2.230987e+00	2.769013e-02
8.968354224349995e-05	2.034942e+00	2.965058e-02
9.875162260064282e-05	1.858294e+00	3.141706e-02
1.078197029577857e-04	1.701044e+00	3.298956e-02
1.168877833149285e-04	1.556002e+00	3.443998e-02
1.259558636720714e-04	1.421242e+00	3.578759e-02
1.350239440292143e-04	1.296763e+00	3.703237e-02
1.440920243863572e-04	1.182567e+00	3.817433e-02
1.531601047435000e-04	1.078652e+00	3.921348e-02
1.622281851006429e-04	9.850190e-01	4.014981e-02
1.712962654577857e-04	9.016680e-01	4.098332e-02
1.803643458149286e-04	8.247879e-01	4.175212e-02
1.894324261720715e-04	7.533578e-01	4.246642e-02
1.985005065292143e-04	6.873776e-01	4.312623e-02
2.075685868863572e-04	6.268473e-01	4.373153e-02
2.166366672435001e-04	5.717669e-01	4.428233e-02
2.257047476006429e-04	5.221365e-01	4.477864e-02
2.347728279577858e-04	4.779559e-01	4.522044e-02
2.438409083149286e-04	4.372054e-01	4.562795e-02
2.529089886720715e-04	3.993436e-01	4.600656e-02
2.619770690292144e-04	3.643705e-01	4.635629e-02
2.710451493863573e-04	3.322862e-01	4.667714e-02
2.801132297435001e-04	3.030907e-01	4.696909e-02
2.891813101006430e-04	2.767838e-01	4.723216e-02
2.982493904577858e-04	2.533658e-01	4.746634e-02
3.074569797435001e-04	2.314586e-01	4.768541e-02
3.166645690292145e-04	2.111229e-01	4.788877e-02
3.258721583149287e-04	1.923587e-01	4.807641e-02
3.350797476006430e-04	1.751658e-01	4.824834e-02
3.442873368863573e-04	1.595445e-01	4.840455e-02
3.534949261720716e-04	1.454946e-01	4.854505e-02
3.627025154577859e-04	1.330161e-01	4.866984e-02
3.719101047435002e-04	1.215170e-01	4.878483e-02
3.811176940292145e-04	1.108427e-01	4.889157e-02
3.903252833149288e-04	1.009933e-01	4.899007e-02
3.995328726006431e-04	9.196874e-02	4.908031e-02
4.087404618863574e-04	8.376905e-02	4.916231e-02
4.179480511720717e-04	7.639421e-02	4.923606e-02
4.271556404577860e-04	6.984422e-02	4.930156e-02
4.365027386720717e-04	6.372391e-02	4.936276e-02
4.458498368863574e-04	5.804774e-02	4.941952e-02
4.551969351006431e-04	5.281572e-02	4.947184e-02
4.645440333149288e-04	4.802785e-02	4.951972e-02
4.738911315292145e-04	4.368413e-02	4.956316e-02
4.832382297435002e-04	3.978455e-02	4.960216e-02
4.925853279577860e-04	3.632913e-02	4.963671e-02
5.000000001000000e-04	3.373718e-02	4.966263e-02
5.000000002000000e-04	-9.966264e+00	4.966263e-02
5.061522757826970e-04	-9.376409e+00	4.376408e-02
5.123045513653940e-04	-8.817104e+00	3.817104e-02
5.184568269480910e-04	-8.288350e+00	3.288350e-02
5.246091025307880e-04	-7.790147e+00	2.790147e-02
5.307613781134849e-04	-7.322494e+00	2.322494e-02
5.369136536961819e-04	-6.885392e+00	1.885392e-02
5.430659292788789e-04	-6.478840e+00	1.478840e-02
5.464141435645932e-04	-6.266053e+00	1.266053e-02
5.497623578503075e-04	-6.059735e+00	1.059735e-02
5.531105721360218e-04	-5.859886e+00	8.598857e-03
5.564587864217360e-04	-5.666505e+00	6.665047e-03
5.598070007074503e-04	-5.479592e+00	4.795923e-03
5.631552149931646e-04	-5.299149e+00	2.991485e-03
5.665034292788789e-04	-5.125173e+00	1.251732e-03
5.674799917788789e-04	-5.075366e+00	7.536591e-04
5.684565542788789e-04	-5.026042e+00	2.604262e-04
5.694331167788789e-04	-4.977199e+00	-2.280133e-04
5.704096792788789e-04	-4.928829e+00	-7.117061e-04
5.723628042788789e-04	-4.833497e+00	-1.665035e-03
5.752924917788789e-04	-4.693944e+00	-3.060567e-03
5.803148132074503e-04	-4.465297e+00	-5.347030e-03
5.853371346360219e-04	-4.246612e+00	-7.533885e-03
5.903594560645933e-04	-4.037887e+00	-9.621132e-03
5.953817774931647e-04	-3.839123e+00	-1.160877e-02
6.004040989217362e-04	-3.650320e+00	-1.349680e-02
6.054264203503076e-04	-3.471477e+00	-1.528523e-02
6.104487417788790e-04	-3.302596e+00	-1.697404e-02
6.195168221360219e-04	-3.020991e+00	-1.979009e-02
6.285849024931647e-04	-2.759349e+00	-2.240651e-02
6.376529828503076e-04	-2.517669e+00	-2.482331e-02
6.467210632074504e-04	-2.295952e+00	-2.704048e-02
6.557891435645933e-04	-2.094198e+00	-2.905802e-02
6.648572239217362e-04	-1.912406e+00	-3.087594e-02
6.739253042788790e-04	-1.750576e+00	-3.249424e-02
6.829933846360219e-04	-1.601311e+00	-3.398689e-02
6.920614649931647e-04	-1.462626e+00	-3.537374e-02
7.011295453503077e-04	-1.334523e+00	-3.665477e-02
7.101976257074505e-04	-1.217001e+00	-3.782999e-02
7.192657060645934e-04	-1.110061e+00	-3.889939e-02
7.283337864217363e-04	-1.013701e+00	-3.986299e-02
7.374018667788791e-04	-9.279230e-01	-4.072077e-02
7.464699471360220e-04	-8.488042e-01	-4.151196e-02
7.555380274931648e-04	-7.752940e-01	-4.224706e-02
7.646061078503077e-04	-7.073925e-01	-4.292608e-02
7.736741882074505e-04	-6.450995e-01	-4.354901e-02
7.827422685645934e-04	-5.884152e-01	-4.411585e-02
7.918103489217363e-04	-5.373395e-01	-4.462661e-02
8.008784292788791e-04	-4.918725e-01	-4.508128e-02
8.099465096360221e-04	-4.499353e-01	-4.550065e-02
8.190145899931649e-04	-4.109709e-01	-4.589029e-02
8.280826703503078e-04	-3.749795e-01	-4.625020e-02
8.371507507074506e-04	-3.419609e-01	-4.658039e-02
8.462188310645935e-04	-3.119152e-01	-4.688085e-02
8.552869114217364e-04	-2.848423e-01	-4.715158e-02
8.643549917788792e-04	-2.607423e-01	-4.739258e-02
8.735625810645935e-04	-2.381972e-01	-4.761803e-02
8.827701703503078e-04	-2.172693e-01	-4.782731e-02
8.919777596360221e-04	-1.979587e-01	-4.802041e-02
9.011853489217364e-04	-1.802652e-01	-4.819735e-02
9.103929382074506e-04	-1.641889e-01	-4.835811e-02
9.196005274931649e-04	-1.497299e-01	-4.850270e-02
9.288081167788793e-04	-1.368880e-01	-4.863112e-02
9.327143667788793e-04	-1.316458e-01	-4.868354e-02
9.419219560645932e-04	-1.202651e-01	-4.879735e-02
9.511295453503072e-04	-1.097009e-01	-4.890299e-02
9.603371346360211e-04	-9.995300e-02	-4.900047e-02
9.695447239217351e-04	-9.102145e-02	-4.908978e-02
9.787523132074490e-04	-8.290626e-02	-4.917094e-02
9.879599024931629e-04	-7.560742e-02	-4.924393e-02
9.971674917788769e-04	-6.912494e-02	-4.930875e-02
1.000000000000000e-03	-6.719580e-02	-4.932804e-02
