time	I(C1)	I(L1)	I(R2)
0.000000000000000e+00	2.249757e-20	4.499514e+00	-3.599611e-05
1.000000000000000e-06	2.637535e-11	4.499514e+00	-3.599611e-05
1.000879999959150e-06	-2.999546e+00	4.499514e+00	-3.177275e-05
1.143086704721462e-05	-2.949750e+00	4.499339e+00	4.958852e-02
2.186085409447009e-05	-2.900454e+00	4.498857e+00	9.840265e-02
3.229084114172556e-05	-2.851655e+00	4.498066e+00	1.464106e-01
4.272082818898104e-05	-2.803355e+00	4.496968e+00	1.936125e-01
5.315081523623651e-05	-2.755554e+00	4.495562e+00	2.400081e-01
6.358080228349197e-05	-2.708251e+00	4.493849e+00	2.855976e-01
7.401078933074742e-05	-2.661446e+00	4.491827e+00	3.303810e-01
1.033076643307474e-04	-2.532552e+00	4.484655e+00	4.521020e-01
1.479505214736046e-04	-2.343984e+00	4.468743e+00	6.247577e-01
1.925933786164618e-04	-2.163351e+00	4.449012e+00	7.856592e-01
2.372362357593190e-04	-1.990653e+00	4.425461e+00	9.348068e-01
2.818790929021762e-04	-1.825888e+00	4.398090e+00	1.072200e+00
3.265219500450334e-04	-1.669058e+00	4.366900e+00	1.197840e+00
3.711648071878906e-04	-1.520162e+00	4.331889e+00	1.311725e+00
4.158076643307477e-04	-1.379201e+00	4.293059e+00	1.413857e+00
4.730063250450335e-04	-1.209345e+00	4.239178e+00	1.529831e+00
5.302049857593193e-04	-1.049500e+00	4.182547e+00	1.633045e+00
5.874036464736050e-04	-8.996649e-01	4.123167e+00	1.723500e+00
6.446023071878908e-04	-7.598410e-01	4.061039e+00	1.801195e+00
7.018009679021766e-04	-6.300278e-01	3.996161e+00	1.866131e+00
7.589996286164624e-04	-5.102253e-01	3.928535e+00	1.918307e+00
8.161982893307480e-04	-4.004335e-01	3.858159e+00	1.957723e+00
8.482853429021767e-04	-3.421089e-01	3.818568e+00	1.976456e+00
8.803723964736052e-04	-2.861893e-01	3.778761e+00	1.992569e+00
9.124594500450338e-04	-2.326745e-01	3.738738e+00	2.006061e+00
9.445465036164624e-04	-1.815647e-01	3.698499e+00	2.016932e+00
9.766335571878911e-04	-1.328598e-01	3.658044e+00	2.025182e+00
1.008720610759320e-03	-8.655989e-02	3.617374e+00	2.030811e+00
1.040807664330748e-03	-4.266487e-02	3.576488e+00	2.033820e+00
1.050573289330748e-03	-2.968429e-02	3.564072e+00	2.034385e+00
1.060338914330748e-03	-1.690215e-02	3.551654e+00	2.034749e+00
1.070104539330748e-03	-4.316577e-03	3.539234e+00	2.034915e+00
1.079870164330748e-03	8.074284e-03	3.526814e+00	2.034885e+00
1.089635789330748e-03	2.027228e-02	3.514395e+00	2.034664e+00
1.099401414330748e-03	3.227924e-02	3.501977e+00	2.034253e+00
1.118932664330748e-03	5.572736e-02	3.477152e+00	2.032877e+00
1.138463914330748e-03	7.843313e-02	3.452349e+00	2.030779e+00
1.167760789330748e-03	1.111311e-01	3.415202e+00	2.026331e+00
1.197057664330748e-03	1.422386e-01	3.378151e+00	2.020387e+00
1.244490700045034e-03	1.889027e-01	3.318220e+00	2.007120e+00
1.291923735759320e-03	2.321662e-01	3.258935e+00	1.991098e+00
1.339356771473606e-03	2.720291e-01	3.200294e+00	1.972321e+00
1.386789807187891e-03	3.084914e-01	3.142299e+00	1.950787e+00
1.434222842902177e-03	3.415531e-01	3.084948e+00	1.926499e+00
1.481655878616463e-03	3.712141e-01	3.028243e+00	1.899454e+00
1.529088914330749e-03	3.974746e-01	2.972183e+00	1.869654e+00
1.597448289330748e-03	4.300445e-01	2.893012e+00	1.823054e+00
1.665807664330748e-03	4.582457e-01	2.816119e+00	1.774362e+00
1.734167039330748e-03	4.820782e-01	2.741502e+00	1.723578e+00
1.802526414330748e-03	5.015420e-01	2.669163e+00	1.670702e+00
1.870885789330748e-03	5.166372e-01	2.599100e+00	1.615735e+00
1.939245164330748e-03	5.273637e-01	2.531314e+00	1.558676e+00
2.007604539330748e-03	5.337214e-01	2.465806e+00	1.499525e+00
2.094100075045032e-03	5.372966e-01	2.386836e+00	1.424130e+00
2.180595610759316e-03	5.377660e-01	2.311824e+00	1.349588e+00
2.267091146473599e-03	5.351297e-01	2.240770e+00	1.275898e+00
2.353586682187883e-03	5.293877e-01	2.173674e+00	1.203060e+00
2.440082217902167e-03	5.205400e-01	2.110536e+00	1.131074e+00
2.526577753616451e-03	5.085865e-01	2.051356e+00	1.059941e+00
2.613073289330735e-03	4.935274e-01	1.996133e+00	9.896591e-01
2.714914807187875e-03	4.741113e-01	1.936233e+00	9.103428e-01
2.816756325045016e-03	4.539194e-01	1.880702e+00	8.346200e-01
2.918597842902157e-03	4.329517e-01	1.829540e+00	7.624907e-01
3.020439360759298e-03	4.112081e-01	1.782748e+00	6.939548e-01
3.122280878616438e-03	3.886886e-01	1.740325e+00	6.290123e-01
3.224122396473579e-03	3.653934e-01	1.702271e+00	5.676632e-01
3.325963914330720e-03	3.413222e-01	1.668586e+00	5.099076e-01
3.443151414330717e-03	3.144870e-01	1.634360e+00	4.488458e-01
3.560338914330715e-03	2.886627e-01	1.603608e+00	3.922694e-01
3.677526414330713e-03	2.638495e-01	1.576330e+00	3.401785e-01
3.794713914330710e-03	2.400472e-01	1.552526e+00	2.925730e-01
3.911901414330708e-03	2.172558e-01	1.532198e+00	2.494529e-01
4.029088914330705e-03	1.954755e-01	1.515343e+00	2.108182e-01
4.146276414330703e-03	1.747062e-01	1.501963e+00	1.766690e-01
4.223006325044986e-03	1.620223e-01	1.494158e+00	1.561794e-01
4.299736235759271e-03	1.499020e-01	1.487137e+00	1.370388e-01
4.376466146473555e-03	1.383452e-01	1.480903e+00	1.192474e-01
4.453196057187839e-03	1.273519e-01	1.475454e+00	1.028050e-01
4.529925967902123e-03	1.169222e-01	1.470790e+00	8.771187e-02
4.606655878616407e-03	1.070559e-01	1.466912e+00	7.396782e-02
4.683385789330691e-03	9.775322e-02	1.463820e+00	6.157290e-02
4.736399182187833e-03	9.164172e-02	1.461953e+00	5.359394e-02
4.789412575044974e-03	8.576911e-02	1.460303e+00	4.607221e-02
4.842425967902116e-03	8.013537e-02	1.458873e+00	3.900769e-02
4.895439360759258e-03	7.474053e-02	1.457660e+00	3.240040e-02
4.948452753616400e-03	6.958456e-02	1.456666e+00	2.625032e-02
5.001466146473541e-03	6.466748e-02	1.455890e+00	2.055746e-02
5.054479539330683e-03	5.998929e-02	1.455333e+00	1.532183e-02
5.079591146473540e-03	5.784579e-02	1.455114e+00	1.295954e-02
5.104702753616397e-03	5.574945e-02	1.454929e+00	1.067767e-02
5.129814360759253e-03	5.370027e-02	1.454776e+00	8.476217e-03
5.154925967902109e-03	5.169823e-02	1.454657e+00	6.355181e-03
5.180037575044967e-03	4.974335e-02	1.454572e+00	4.314562e-03
5.205149182187823e-03	4.783563e-02	1.454519e+00	2.354360e-03
5.230260789330679e-03	4.597506e-02	1.454500e+00	4.745749e-04
5.240026414330679e-03	4.526305e-02	1.454499e+00	-2.382228e-04
5.249792039330679e-03	4.455780e-02	1.454503e+00	-9.399481e-04
5.259557664330679e-03	4.385927e-02	1.454510e+00	-1.630706e-03
5.279088914330678e-03	4.248220e-02	1.454538e+00	-2.979740e-03
5.298620164330678e-03	4.113154e-02	1.454583e+00	-4.286153e-03
5.327917039330677e-03	3.915443e-02	1.454678e+00	-6.167654e-03
5.357213914330677e-03	3.723501e-02	1.454807e+00	-7.957833e-03
5.404646950044961e-03	3.425796e-02	1.455099e+00	-1.064378e-02
5.452079985759246e-03	3.141421e-02	1.455452e+00	-1.313442e-02
5.499513021473531e-03	2.870376e-02	1.455867e+00	-1.542976e-02
5.546946057187816e-03	2.612663e-02	1.456344e+00	-1.752981e-02
5.594379092902100e-03	2.368279e-02	1.456883e+00	-1.943455e-02
5.641812128616385e-03	2.137226e-02	1.457484e+00	-2.114399e-02
5.689245164330670e-03	1.919504e-02	1.458147e+00	-2.265814e-02
5.745048735759240e-03	1.678824e-02	1.458981e+00	-2.423061e-02
5.800852307187810e-03	1.452217e-02	1.459852e+00	-2.562638e-02
5.856655878616381e-03	1.239683e-02	1.460758e+00	-2.684545e-02
5.912459450044951e-03	1.041221e-02	1.461700e+00	-2.788782e-02
5.968263021473521e-03	8.568324e-03	1.462678e+00	-2.875349e-02
6.024066592902091e-03	6.865161e-03	1.463693e+00	-2.944247e-02
6.079870164330661e-03	5.302725e-03	1.464743e+00	-2.995475e-02
6.109167039330661e-03	4.524179e-03	1.465295e+00	-3.018136e-02
6.138463914330660e-03	3.775534e-03	1.465849e+00	-3.037571e-02
6.167760789330659e-03	3.056790e-03	1.466406e+00	-3.053781e-02
6.197057664330659e-03	2.367948e-03	1.466965e+00	-3.066765e-02
6.226354539330658e-03	1.709007e-03	1.467526e+00	-3.076524e-02
6.255651414330658e-03	1.079968e-03	1.468090e+00	-3.083057e-02
6.284948289330657e-03	4.808295e-04	1.468656e+00	-3.086364e-02
6.294713914330657e-03	2.865114e-04	1.468844e+00	-3.086963e-02
6.304479539330657e-03	9.517877e-05	1.469033e+00	-3.087261e-02
6.314245164330656e-03	-9.319650e-05	1.469221e+00	-3.087263e-02
6.324010789330656e-03	-2.786425e-04	1.469409e+00	-3.086972e-02
6.333776414330656e-03	-4.611870e-04	1.469597e+00	-3.086394e-02
6.353307664330655e-03	-8.176824e-04	1.469974e+00	-3.084394e-02
6.372838914330655e-03	-1.162902e-03	1.470350e+00	-3.081297e-02
6.402135789330654e-03	-1.660066e-03	1.470914e+00	-3.074672e-02
6.431432664330654e-03	-2.133071e-03	1.471476e+00	-3.065774e-02
6.478865700044938e-03	-2.842685e-03	1.472385e+00	-3.045828e-02
6.526298735759223e-03	-3.500641e-03	1.473284e+00	-3.021690e-02
6.573731771473508e-03	-4.106938e-03	1.474174e+00	-2.993361e-02
6.621164807187793e-03	-4.661577e-03	1.475053e+00	-2.960841e-02
6.668597842902077e-03	-5.164558e-03	1.475924e+00	-2.924128e-02
6.716030878616362e-03	-5.615879e-03	1.476784e+00	-2.883224e-02
6.763463914330647e-03	-6.015542e-03	1.477635e+00	-2.838129e-02
6.831823289330645e-03	-6.511371e-03	1.478836e+00	-2.767578e-02
6.900182664330644e-03	-6.940813e-03	1.480003e+00	-2.693839e-02
6.968542039330642e-03	-7.303870e-03	1.481135e+00	-2.616911e-02
7.036901414330641e-03	-7.600541e-03	1.482233e+00	-2.536794e-02
7.105260789330639e-03	-7.830827e-03	1.483296e+00	-2.453489e-02
7.173620164330638e-03	-7.994727e-03	1.484325e+00	-2.366996e-02
7.241979539330637e-03	-8.092241e-03	1.485319e+00	-2.277314e-02
7.328475075044920e-03	-8.147689e-03	1.486518e+00	-2.162987e-02
7.414970610759204e-03	-8.155908e-03	1.487657e+00	-2.049942e-02
7.501466146473488e-03	-8.116900e-03	1.488735e+00	-1.938177e-02
7.587961682187772e-03	-8.030664e-03	1.489754e+00	-1.827693e-02
7.674457217902056e-03	-7.897199e-03	1.490713e+00	-1.718490e-02
7.760952753616340e-03	-7.716507e-03	1.491611e+00	-1.610567e-02
7.847448289330624e-03	-7.488587e-03	1.492450e+00	-1.503925e-02
7.949289807187765e-03	-7.194562e-03	1.493359e+00	-1.383565e-02
8.051131325044905e-03	-6.888691e-03	1.494202e+00	-1.268653e-02
8.152972842902046e-03	-6.570972e-03	1.494979e+00	-1.159187e-02
8.254814360759186e-03	-6.241405e-03	1.495690e+00	-1.055167e-02
8.356655878616327e-03	-5.899991e-03	1.496334e+00	-9.565947e-03
8.458497396473467e-03	-5.546731e-03	1.496912e+00	-8.634689e-03
8.560338914330608e-03	-5.181622e-03	1.497424e+00	-7.757899e-03
8.677526414330606e-03	-4.774540e-03	1.497944e+00	-6.830866e-03
8.794713914330603e-03	-4.382763e-03	1.498411e+00	-5.971894e-03
8.911901414330601e-03	-4.006290e-03	1.498826e+00	-5.180984e-03
9.029088914330598e-03	-3.645122e-03	1.499187e+00	-4.458135e-03
9.146276414330596e-03	-3.299258e-03	1.499496e+00	-3.803348e-03
9.263463914330593e-03	-2.968699e-03	1.499752e+00	-3.216623e-03
9.380651414330591e-03	-2.653444e-03	1.499956e+00	-2.697960e-03
9.430874628616304e-03	-2.526371e-03	1.500036e+00	-2.490610e-03
9.481097842902018e-03	-2.402995e-03	1.500111e+00	-2.292579e-03
9.531321057187731e-03	-2.283315e-03	1.500180e+00	-2.103868e-03
9.581544271473444e-03	-2.167333e-03	1.500243e+00	-1.924477e-03
9.631767485759158e-03	-2.055047e-03	1.500301e+00	-1.754406e-03
9.681990700044871e-03	-1.946458e-03	1.500353e+00	-1.593654e-03
9.732213914330583e-03	-1.841566e-03	1.500400e+00	-1.442222e-03
9.770469069426215e-03	-1.764146e-03	1.500432e+00	-1.332199e-03
9.808724224521845e-03	-1.688773e-03	1.500463e+00	-1.226537e-03
9.846979379617477e-03	-1.615447e-03	1.500491e+00	-1.125237e-03
9.885234534713107e-03	-1.544167e-03	1.500516e+00	-1.028299e-03
9.923489689808739e-03	-1.474934e-03	1.500540e+00	-9.357230e-04
9.961744844904368e-03	-1.407747e-03	1.500561e+00	-8.475085e-04
1.000000000000000e-02	-1.342608e-03	1.500579e+00	-7.636559e-04
