Freq.	V(n007)
1.00000000000000e+02	(3.44311491380436e+01dB,-1.70978276704144e+02°)
1.00230523807790e+02	(3.44316421252879e+01dB,-1.70998782068000e+02°)
1.00461579027839e+02	(3.44321329030355e+01dB,-1.71019242809569e+02°)
1.00693166885180e+02	(3.44326214809409e+01dB,-1.71039659016608e+02°)
1.00925288607668e+02	(3.44331078686187e+01dB,-1.71060030776775e+02°)
1.01157945425990e+02	(3.44335920756437e+01dB,-1.71080358177625e+02°)
1.01391138573668e+02	(3.44340741115509e+01dB,-1.71100641306614e+02°)
1.01624869287070e+02	(3.44345539858358e+01dB,-1.71120880251095e+02°)
1.01859138805412e+02	(3.44350317079547e+01dB,-1.71141075098319e+02°)
1.02093948370768e+02	(3.44355072873245e+01dB,-1.71161225935436e+02°)
1.02329299228075e+02	(3.44359807333229e+01dB,-1.71181332849492e+02°)
1.02565192625141e+02	(3.44364520552887e+01dB,-1.71201395927431e+02°)
1.02801629812647e+02	(3.44369212625222e+01dB,-1.71221415256092e+02°)
1.03038612044162e+02	(3.44373883642845e+01dB,-1.71241390922211e+02°)
1.03276140576140e+02	(3.44378533697986e+01dB,-1.71261323012421e+02°)
1.03514216667934e+02	(3.44383162882489e+01dB,-1.71281211613248e+02°)
1.03752841581801e+02	(3.44387771287816e+01dB,-1.71301056811116e+02°)
1.03992016582906e+02	(3.44392359005049e+01dB,-1.71320858692342e+02°)
1.04231742939330e+02	(3.44396926124889e+01dB,-1.71340617343138e+02°)
1.04472021922080e+02	(3.44401472737659e+01dB,-1.71360332849609e+02°)
1.04712854805090e+02	(3.44405998933306e+01dB,-1.71380005297757e+02°)
1.04954242865232e+02	(3.44410504801401e+01dB,-1.71399634773473e+02°)
1.05196187382322e+02	(3.44414990431140e+01dB,-1.71419221362545e+02°)
1.05438689639126e+02	(3.44419455911350e+01dB,-1.71438765150653e+02°)
1.05681750921366e+02	(3.44423901330481e+01dB,-1.71458266223367e+02°)
1.05925372517729e+02	(3.44428326776619e+01dB,-1.71477724666153e+02°)
1.06169555719872e+02	(3.44432732337478e+01dB,-1.71497140564366e+02°)
1.06414301822431e+02	(3.44437118100405e+01dB,-1.71516514003255e+02°)
1.06659612123026e+02	(3.44441484152383e+01dB,-1.71535845067958e+02°)
1.06905487922266e+02	(3.44445830580030e+01dB,-1.71555133843507e+02°)
1.07151930523760e+02	(3.44450157469600e+01dB,-1.71574380414820e+02°)
1.07398941234124e+02	(3.44454464906987e+01dB,-1.71593584866712e+02°)
1.07646521362983e+02	(3.44458752977723e+01dB,-1.71612747283882e+02°)
1.07894672222983e+02	(3.44463021766983e+01dB,-1.71631867750923e+02°)
1.08143395129794e+02	(3.44467271359583e+01dB,-1.71650946352315e+02°)
1.08392691402120e+02	(3.44471501839982e+01dB,-1.71669983172430e+02°)
1.08642562361706e+02	(3.44475713292288e+01dB,-1.71688978295528e+02°)
1.08893009333343e+02	(3.44479905800250e+01dB,-1.71707931805756e+02°)
1.09144033644875e+02	(3.44484079447270e+01dB,-1.71726843787153e+02°)
1.09395636627209e+02	(3.44488234316396e+01dB,-1.71745714323643e+02°)
1.09647819614318e+02	(3.44492370490327e+01dB,-1.71764543499041e+02°)
1.09900583943252e+02	(3.44496488051415e+01dB,-1.71783331397049e+02°)
1.10153930954141e+02	(3.44500587081663e+01dB,-1.71802078101254e+02°)
1.10407861990207e+02	(3.44504667662730e+01dB,-1.71820783695135e+02°)
1.10662378397766e+02	(3.44508729875932e+01dB,-1.71839448262054e+02°)
1.10917481526240e+02	(3.44512773802238e+01dB,-1.71858071885263e+02°)
1.11173172728159e+02	(3.44516799522280e+01dB,-1.71876654647898e+02°)
1.11429453359173e+02	(3.44520807116347e+01dB,-1.71895196632983e+02°)
1.11686324778056e+02	(3.44524796664389e+01dB,-1.71913697923429e+02°)
1.11943788346715e+02	(3.44528768246020e+01dB,-1.71932158602031e+02°)
1.12201845430196e+02	(3.44532721940515e+01dB,-1.71950578751471e+02°)
1.12460497396692e+02	(3.44536657826816e+01dB,-1.71968958454316e+02°)
1.12719745617551e+02	(3.44540575983530e+01dB,-1.71987297793020e+02°)
1.12979591467279e+02	(3.44544476488933e+01dB,-1.72005596849920e+02°)
1.13240036323555e+02	(3.44548359420968e+01dB,-1.72023855707239e+02°)
1.13501081567231e+02	(3.44552224857248e+01dB,-1.72042074447085e+02°)
1.13762728582343e+02	(3.44556072875058e+01dB,-1.72060253151450e+02°)
1.14024978756116e+02	(3.44559903551356e+01dB,-1.72078391902210e+02°)
1.14287833478977e+02	(3.44563716962772e+01dB,-1.72096490781127e+02°)
1.14551294144553e+02	(3.44567513185613e+01dB,-1.72114549869846e+02°)
1.14815362149688e+02	(3.44571292295861e+01dB,-1.72132569249895e+02°)
1.15080038894443e+02	(3.44575054369175e+01dB,-1.72150549002686e+02°)
1.15345325782109e+02	(3.44578799480895e+01dB,-1.72168489209516e+02°)
1.15611224219210e+02	(3.44582527706040e+01dB,-1.72186389951563e+02°)
1.15877735615512e+02	(3.44586239119309e+01dB,-1.72204251309890e+02°)
1.16144861384034e+02	(3.44589933795085e+01dB,-1.72222073365442e+02°)
1.16412602941049e+02	(3.44593611807434e+01dB,-1.72239856199047e+02°)
1.16680961706096e+02	(3.44597273230108e+01dB,-1.72257599891416e+02°)
1.16949939101987e+02	(3.44600918136544e+01dB,-1.72275304523142e+02°)
1.17219536554813e+02	(3.44604546599866e+01dB,-1.72292970174701e+02°)
1.17489755493953e+02	(3.44608158692889e+01dB,-1.72310596926449e+02°)
1.17760597352080e+02	(3.44611754488115e+01dB,-1.72328184858628e+02°)
1.18032063565173e+02	(3.44615334057739e+01dB,-1.72345734051359e+02°)
1.18304155572516e+02	(3.44618897473647e+01dB,-1.72363244584645e+02°)
1.18576874816716e+02	(3.44622444807421e+01dB,-1.72380716538371e+02°)
1.18850222743701e+02	(3.44625976130334e+01dB,-1.72398149992303e+02°)
1.19124200802737e+02	(3.44629491513356e+01dB,-1.72415545026090e+02°)
1.19398810446427e+02	(3.44632991027158e+01dB,-1.72432901719260e+02°)
1.19674053130724e+02	(3.44636474742102e+01dB,-1.72450220151224e+02°)
1.19949930314937e+02	(3.44639942728256e+01dB,-1.72467500401272e+02°)
1.20226443461741e+02	(3.44643395055386e+01dB,-1.72484742548576e+02°)
1.20503594037179e+02	(3.44646831792958e+01dB,-1.72501946672190e+02°)
1.20781383510677e+02	(3.44650253010144e+01dB,-1.72519112851045e+02°)
1.21059813355048e+02	(3.44653658775819e+01dB,-1.72536241163957e+02°)
1.21338885046497e+02	(3.44657049158562e+01dB,-1.72553331689618e+02°)
1.21618600064636e+02	(3.44660424226661e+01dB,-1.72570384506603e+02°)
1.21898959892486e+02	(3.44663784048110e+01dB,-1.72587399693367e+02°)
1.22179966016487e+02	(3.44667128690611e+01dB,-1.72604377328243e+02°)
1.22461619926504e+02	(3.44670458221577e+01dB,-1.72621317489447e+02°)
1.22743923115840e+02	(3.44673772708134e+01dB,-1.72638220255072e+02°)
1.23026877081238e+02	(3.44677072217116e+01dB,-1.72655085703093e+02°)
1.23310483322890e+02	(3.44680356815073e+01dB,-1.72671913911363e+02°)
1.23594743344450e+02	(3.44683626568270e+01dB,-1.72688704957615e+02°)
1.23879658653036e+02	(3.44686881542686e+01dB,-1.72705458919462e+02°)
1.24165230759240e+02	(3.44690121804017e+01dB,-1.72722175874396e+02°)
1.24451461177138e+02	(3.44693347417678e+01dB,-1.72738855899789e+02°)
1.24738351424294e+02	(3.44696558448803e+01dB,-1.72755499072891e+02°)
1.25025903021771e+02	(3.44699754962243e+01dB,-1.72772105470831e+02°)
1.25314117494141e+02	(3.44702937022575e+01dB,-1.72788675170619e+02°)
1.25602996369487e+02	(3.44706104694095e+01dB,-1.72805208249142e+02°)
1.25892541179416e+02	(3.44709258040824e+01dB,-1.72821704783167e+02°)
1.26182753459066e+02	(3.44712397126506e+01dB,-1.72838164849339e+02°)
1.26473634747114e+02	(3.44715522014613e+01dB,-1.72854588524183e+02°)
1.26765186585784e+02	(3.44718632768341e+01dB,-1.72870975884103e+02°)
1.27057410520853e+02	(3.44721729450617e+01dB,-1.72887327005378e+02°)
1.27350308101665e+02	(3.44724812124093e+01dB,-1.72903641964171e+02°)
1.27643880881134e+02	(3.44727880851154e+01dB,-1.72919920836519e+02°)
1.27938130415752e+02	(3.44730935693917e+01dB,-1.72936163698340e+02°)
1.28233058265601e+02	(3.44733976714227e+01dB,-1.72952370625430e+02°)
1.28528665994361e+02	(3.44737003973666e+01dB,-1.72968541693463e+02°)
1.28824955169313e+02	(3.44740017533550e+01dB,-1.72984676977991e+02°)
1.29121927361353e+02	(3.44743017454927e+01dB,-1.73000776554446e+02°)
1.29419584144998e+02	(3.44746003798586e+01dB,-1.73016840498135e+02°)
1.29717927098395e+02	(3.44748976625051e+01dB,-1.73032868884246e+02°)
1.30016957803328e+02	(3.44751935994584e+01dB,-1.73048861787845e+02°)
1.30316677845229e+02	(3.44754881967189e+01dB,-1.73064819283875e+02°)
1.30617088813183e+02	(3.44757814602608e+01dB,-1.73080741447157e+02°)
1.30918192299940e+02	(3.44760733960327e+01dB,-1.73096628352391e+02°)
1.31219989901919e+02	(3.44763640099574e+01dB,-1.73112480074155e+02°)
1.31522483219223e+02	(3.44766533079320e+01dB,-1.73128296686904e+02°)
1.31825673855640e+02	(3.44769412958282e+01dB,-1.73144078264972e+02°)
1.32129563418657e+02	(3.44772279794921e+01dB,-1.73159824882569e+02°)
1.32434153519466e+02	(3.44775133647448e+01dB,-1.73175536613786e+02°)
1.32739445772973e+02	(3.44777974573819e+01dB,-1.73191213532590e+02°)
1.33045441797808e+02	(3.44780802631741e+01dB,-1.73206855712825e+02°)
1.33352143216332e+02	(3.44783617878669e+01dB,-1.73222463228215e+02°)
1.33659551654643e+02	(3.44786420371811e+01dB,-1.73238036152361e+02°)
1.33967668742593e+02	(3.44789210168125e+01dB,-1.73253574558740e+02°)
1.34276496113785e+02	(3.44791987324325e+01dB,-1.73269078520710e+02°)
1.34586035405594e+02	(3.44794751896875e+01dB,-1.73284548111505e+02°)
1.34896288259164e+02	(3.44797503941997e+01dB,-1.73299983404236e+02°)
1.35207256319427e+02	(3.44800243515668e+01dB,-1.73315384471893e+02°)
1.35518941235103e+02	(3.44802970673623e+01dB,-1.73330751387345e+02°)
1.35831344658714e+02	(3.44805685471352e+01dB,-1.73346084223335e+02°)
1.36144468246594e+02	(3.44808387964108e+01dB,-1.73361383052488e+02°)
1.36458313658891e+02	(3.44811078206901e+01dB,-1.73376647947304e+02°)
1.36772882559584e+02	(3.44813756254504e+01dB,-1.73391878980162e+02°)
1.37088176616484e+02	(3.44816422161449e+01dB,-1.73407076223318e+02°)
1.37404197501251e+02	(3.44819075982034e+01dB,-1.73422239748906e+02°)
1.37720946889394e+02	(3.44821717770320e+01dB,-1.73437369628938e+02°)
1.38038426460287e+02	(3.44824347580131e+01dB,-1.73452465935305e+02°)
1.38356637897177e+02	(3.44826965465060e+01dB,-1.73467528739773e+02°)
1.38675582887188e+02	(3.44829571478463e+01dB,-1.73482558113989e+02°)
1.38995263121334e+02	(3.44832165673468e+01dB,-1.73497554129474e+02°)
1.39315680294529e+02	(3.44834748102967e+01dB,-1.73512516857632e+02°)
1.39636836105593e+02	(3.44837318819626e+01dB,-1.73527446369740e+02°)
1.39958732257261e+02	(3.44839877875878e+01dB,-1.73542342736955e+02°)
1.40281370456195e+02	(3.44842425323929e+01dB,-1.73557206030312e+02°)
1.40604752412990e+02	(3.44844961215758e+01dB,-1.73572036320725e+02°)
1.40928879842186e+02	(3.44847485603117e+01dB,-1.73586833678983e+02°)
1.41253754462274e+02	(3.44849998537532e+01dB,-1.73601598175756e+02°)
1.41579377995707e+02	(3.44852500070304e+01dB,-1.73616329881590e+02°)
1.41905752168908e+02	(3.44854990252510e+01dB,-1.73631028866910e+02°)
1.42232878712281e+02	(3.44857469135006e+01dB,-1.73645695202019e+02°)
1.42560759360218e+02	(3.44859936768423e+01dB,-1.73660328957098e+02°)
1.42889395851109e+02	(3.44862393203173e+01dB,-1.73674930202206e+02°)
1.43218789927353e+02	(3.44864838489448e+01dB,-1.73689499007280e+02°)
1.43548943335364e+02	(3.44867272677219e+01dB,-1.73704035442136e+02°)
1.43879857825583e+02	(3.44869695816241e+01dB,-1.73718539576468e+02°)
1.44211535152486e+02	(3.44872107956049e+01dB,-1.73733011479848e+02°)
1.44543977074592e+02	(3.44874509145963e+01dB,-1.73747451221726e+02°)
1.44877185354475e+02	(3.44876899435087e+01dB,-1.73761858871431e+02°)
1.45211161758773e+02	(3.44879278872311e+01dB,-1.73776234498170e+02°)
1.45545908058195e+02	(3.44881647506309e+01dB,-1.73790578171029e+02°)
1.45881426027534e+02	(3.44884005385545e+01dB,-1.73804889958972e+02°)
1.46217717445671e+02	(3.44886352558268e+01dB,-1.73819169930843e+02°)
1.46554784095590e+02	(3.44888689072518e+01dB,-1.73833418155362e+02°)
1.46892627764385e+02	(3.44891014976123e+01dB,-1.73847634701130e+02°)
1.47231250243271e+02	(3.44893330316703e+01dB,-1.73861819636625e+02°)
1.47570653327588e+02	(3.44895635141667e+01dB,-1.73875973030205e+02°)
1.47910838816819e+02	(3.44897929498220e+01dB,-1.73890094950107e+02°)
1.48251808514594e+02	(3.44900213433358e+01dB,-1.73904185464446e+02°)
1.48593564228699e+02	(3.44902486993869e+01dB,-1.73918244641215e+02°)
1.48936107771090e+02	(3.44904750226339e+01dB,-1.73932272548290e+02°)
1.49279440957898e+02	(3.44907003177150e+01dB,-1.73946269253421e+02°)
1.49623565609442e+02	(3.44909245892477e+01dB,-1.73960234824240e+02°)
1.49968483550236e+02	(3.44911478418295e+01dB,-1.73974169328258e+02°)
1.50314196609001e+02	(3.44913700800378e+01dB,-1.73988072832865e+02°)
1.50660706618673e+02	(3.44915913084297e+01dB,-1.74001945405331e+02°)
1.51008015416413e+02	(3.44918115315424e+01dB,-1.74015787112803e+02°)
1.51356124843619e+02	(3.44920307538931e+01dB,-1.74029598022310e+02°)
1.51705036745932e+02	(3.44922489799793e+01dB,-1.74043378200760e+02°)
1.52054752973248e+02	(3.44924662142786e+01dB,-1.74057127714940e+02°)
1.52405275379728e+02	(3.44926824612490e+01dB,-1.74070846631516e+02°)
1.52756605823806e+02	(3.44928977253290e+01dB,-1.74084535017036e+02°)
1.53108746168201e+02	(3.44931120109374e+01dB,-1.74098192937927e+02°)
1.53461698279928e+02	(3.44933253224736e+01dB,-1.74111820460493e+02°)
1.53815464030302e+02	(3.44935376643177e+01dB,-1.74125417650922e+02°)
1.54170045294954e+02	(3.44937490408307e+01dB,-1.74138984575281e+02°)
1.54525443953840e+02	(3.44939594563542e+01dB,-1.74152521299515e+02°)
1.54881661891247e+02	(3.44941689152106e+01dB,-1.74166027889452e+02°)
1.55238700995807e+02	(3.44943774217036e+01dB,-1.74179504410798e+02°)
1.55596563160506e+02	(3.44945849801178e+01dB,-1.74192950929141e+02°)
1.55955250282694e+02	(3.44947915947188e+01dB,-1.74206367509949e+02°)
1.56314764264094e+02	(3.44949972697536e+01dB,-1.74219754218570e+02°)
1.56675107010813e+02	(3.44952020094504e+01dB,-1.74233111120233e+02°)
1.57036280433354e+02	(3.44954058180188e+01dB,-1.74246438280049e+02°)
1.57398286446620e+02	(3.44956086996499e+01dB,-1.74259735763007e+02°)
1.57761126969933e+02	(3.44958106585163e+01dB,-1.74273003633979e+02°)
1.58124803927037e+02	(3.44960116987721e+01dB,-1.74286241957717e+02°)
1.58489319246110e+02	(3.44962118245532e+01dB,-1.74299450798855e+02°)
1.58854674859776e+02	(3.44964110399772e+01dB,-1.74312630221908e+02°)
1.59220872705115e+02	(3.44966093491437e+01dB,-1.74325780291272e+02°)
1.59587914723672e+02	(3.44968067561340e+01dB,-1.74338901071223e+02°)
1.59955802861465e+02	(3.44970032650115e+01dB,-1.74351992625920e+02°)
1.60324539069002e+02	(3.44971988798216e+01dB,-1.74365055019404e+02°)
1.60694125301286e+02	(3.44973936045919e+01dB,-1.74378088315597e+02°)
1.61064563517825e+02	(3.44975874433323e+01dB,-1.74391092578301e+02°)
1.61435855682647e+02	(3.44977804000347e+01dB,-1.74404067871203e+02°)
1.61808003764305e+02	(3.44979724786738e+01dB,-1.74417014257870e+02°)
1.62181009735891e+02	(3.44981636832064e+01dB,-1.74429931801752e+02°)
1.62554875575047e+02	(3.44983540175720e+01dB,-1.74442820566179e+02°)
1.62929603263970e+02	(3.44985434856925e+01dB,-1.74455680614365e+02°)
1.63305194789432e+02	(3.44987320914726e+01dB,-1.74468512009407e+02°)
1.63681652142779e+02	(3.44989198387999e+01dB,-1.74481314814283e+02°)
1.64058977319952e+02	(3.44991067315445e+01dB,-1.74494089091855e+02°)
1.64437172321491e+02	(3.44992927735596e+01dB,-1.74506834904865e+02°)
1.64816239152549e+02	(3.44994779686812e+01dB,-1.74519552315940e+02°)
1.65196179822900e+02	(3.44996623207284e+01dB,-1.74532241387591e+02°)
1.65576996346951e+02	(3.44998458335035e+01dB,-1.74544902182208e+02°)
1.65958690743754e+02	(3.45000285107919e+01dB,-1.74557534762068e+02°)
1.66341265037015e+02	(3.45002103563622e+01dB,-1.74570139189328e+02°)
1.66724721255104e+02	(3.45003913739664e+01dB,-1.74582715526032e+02°)
1.67109061431069e+02	(3.45005715673397e+01dB,-1.74595263834104e+02°)
1.67494287602642e+02	(3.45007509402011e+01dB,-1.74607784175352e+02°)
1.67880401812254e+02	(3.45009294962528e+01dB,-1.74620276611471e+02°)
1.68267406107045e+02	(3.45011072391807e+01dB,-1.74632741204035e+02°)
1.68655302538872e+02	(3.45012841726545e+01dB,-1.74645178014504e+02°)
1.69044093164324e+02	(3.45014603003275e+01dB,-1.74657587104224e+02°)
1.69433780044731e+02	(3.45016356258368e+01dB,-1.74669968534422e+02°)
1.69824365246172e+02	(3.45018101528034e+01dB,-1.74682322366210e+02°)
1.70215850839493e+02	(3.45019838848324e+01dB,-1.74694648660585e+02°)
1.70608238900310e+02	(3.45021568255127e+01dB,-1.74706947478429e+02°)
1.71001531509027e+02	(3.45023289784173e+01dB,-1.74719218880507e+02°)
1.71395730750840e+02	(3.45025003471036e+01dB,-1.74731462927469e+02°)
1.71790838715757e+02	(3.45026709351128e+01dB,-1.74743679679851e+02°)
1.72186857498599e+02	(3.45028407459708e+01dB,-1.74755869198074e+02°)
1.72583789199018e+02	(3.45030097831876e+01dB,-1.74768031542441e+02°)
1.72981635921508e+02	(3.45031780502576e+01dB,-1.74780166773145e+02°)
1.73380399775412e+02	(3.45033455506599e+01dB,-1.74792274950259e+02°)
1.73780082874935e+02	(3.45035122878581e+01dB,-1.74804356133747e+02°)
1.74180687339159e+02	(3.45036782653001e+01dB,-1.74816410383453e+02°)
1.74582215292048e+02	(3.45038434864190e+01dB,-1.74828437759112e+02°)
1.74984668862463e+02	(3.45040079546322e+01dB,-1.74840438320340e+02°)
1.75388050184174e+02	(3.45041716733422e+01dB,-1.74852412126642e+02°)
1.75792361395867e+02	(3.45043346459362e+01dB,-1.74864359237409e+02°)
1.76197604641161e+02	(3.45044968757865e+01dB,-1.74876279711916e+02°)
1.76603782068614e+02	(3.45046583662503e+01dB,-1.74888173609326e+02°)
1.77010895831740e+02	(3.45048191206699e+01dB,-1.74900040988689e+02°)
1.77418948089014e+02	(3.45049791423727e+01dB,-1.74911881908940e+02°)
1.77827941003890e+02	(3.45051384346716e+01dB,-1.74923696428901e+02°)
1.78237876744807e+02	(3.45052970008642e+01dB,-1.74935484607282e+02°)
1.78648757485203e+02	(3.45054548442339e+01dB,-1.74947246502679e+02°)
1.79060585403527e+02	(3.45056119680494e+01dB,-1.74958982173575e+02°)
1.79473362683250e+02	(3.45057683755646e+01dB,-1.74970691678341e+02°)
1.79887091512876e+02	(3.45059240700193e+01dB,-1.74982375075235e+02°)
1.80301774085954e+02	(3.45060790546387e+01dB,-1.74994032422401e+02°)
1.80717412601090e+02	(3.45062333326335e+01dB,-1.75005663777874e+02°)
1.81134009261958e+02	(3.45063869072003e+01dB,-1.75017269199574e+02°)
1.81551566277311e+02	(3.45065397815214e+01dB,-1.75028848745309e+02°)
1.81970085860996e+02	(3.45066919587649e+01dB,-1.75040402472776e+02°)
1.82389570231961e+02	(3.45068434420850e+01dB,-1.75051930439561e+02°)
1.82810021614272e+02	(3.45069942346214e+01dB,-1.75063432703136e+02°)
1.83231442237119e+02	(3.45071443395003e+01dB,-1.75074909320863e+02°)
1.83653834334832e+02	(3.45072937598336e+01dB,-1.75086360349992e+02°)
1.84077200146893e+02	(3.45074424987196e+01dB,-1.75097785847663e+02°)
1.84501541917945e+02	(3.45075905592425e+01dB,-1.75109185870903e+02°)
1.84926861897805e+02	(3.45077379444731e+01dB,-1.75120560476629e+02°)
1.85353162341478e+02	(3.45078846574682e+01dB,-1.75131909721648e+02°)
1.85780445509167e+02	(3.45080307012712e+01dB,-1.75143233662653e+02°)
1.86208713666284e+02	(3.45081760789117e+01dB,-1.75154532356231e+02°)
1.86637969083464e+02	(3.45083207934060e+01dB,-1.75165805858856e+02°)
1.87068214036577e+02	(3.45084648477567e+01dB,-1.75177054226890e+02°)
1.87499450806739e+02	(3.45086082449534e+01dB,-1.75188277516590e+02°)
1.87931681680324e+02	(3.45087509879719e+01dB,-1.75199475784097e+02°)
1.88364908948977e+02	(3.45088930797750e+01dB,-1.75210649085447e+02°)
1.88799134909627e+02	(3.45090345233122e+01dB,-1.75221797476563e+02°)
1.89234361864495e+02	(3.45091753215199e+01dB,-1.75232921013260e+02°)
1.89670592121112e+02	(3.45093154773212e+01dB,-1.75244019751244e+02°)
1.90107827992327e+02	(3.45094549936264e+01dB,-1.75255093746111e+02°)
1.90546071796322e+02	(3.45095938733326e+01dB,-1.75266143053346e+02°)
1.90985325856621e+02	(3.45097321193240e+01dB,-1.75277167728330e+02°)
1.91425592502106e+02	(3.45098697344720e+01dB,-1.75288167826329e+02°)
1.91866874067026e+02	(3.45100067216351e+01dB,-1.75299143402506e+02°)
1.92309172891013e+02	(3.45101430836591e+01dB,-1.75310094511911e+02°)
