Freq.	V(n008)
1.00000000000000e+02	(6.01791957556873e+00dB,-1.78885556042100e+02°)
1.00230523807790e+02	(6.01792852465714e+00dB,-1.78888584484431e+02°)
1.00461579027839e+02	(6.01793743234861e+00dB,-1.78891607041828e+02°)
1.00693166885180e+02	(6.01794629883181e+00dB,-1.78894623730262e+02°)
1.00925288607668e+02	(6.01795512429454e+00dB,-1.78897634565676e+02°)
1.01157945425990e+02	(6.01796390892369e+00dB,-1.78900639563981e+02°)
1.01391138573668e+02	(6.01797265290533e+00dB,-1.78903638741057e+02°)
1.01624869287070e+02	(6.01798135642465e+00dB,-1.78906632112754e+02°)
1.01859138805412e+02	(6.01799001966599e+00dB,-1.78909619694891e+02°)
1.02093948370768e+02	(6.01799864281284e+00dB,-1.78912601503258e+02°)
1.02329299228075e+02	(6.01800722604783e+00dB,-1.78915577553613e+02°)
1.02565192625141e+02	(6.01801576955276e+00dB,-1.78918547861686e+02°)
1.02801629812647e+02	(6.01802427350858e+00dB,-1.78921512443175e+02°)
1.03038612044162e+02	(6.01803273809541e+00dB,-1.78924471313747e+02°)
1.03276140576140e+02	(6.01804116349253e+00dB,-1.78927424489043e+02°)
1.03514216667934e+02	(6.01804954987840e+00dB,-1.78930371984671e+02°)
1.03752841581801e+02	(6.01805789743063e+00dB,-1.78933313816210e+02°)
1.03992016582906e+02	(6.01806620632607e+00dB,-1.78936249999209e+02°)
1.04231742939330e+02	(6.01807447674067e+00dB,-1.78939180549187e+02°)
1.04472021922080e+02	(6.01808270884963e+00dB,-1.78942105481636e+02°)
1.04712854805090e+02	(6.01809090282731e+00dB,-1.78945024812015e+02°)
1.04954242865232e+02	(6.01809905884726e+00dB,-1.78947938555756e+02°)
1.05196187382322e+02	(6.01810717708225e+00dB,-1.78950846728261e+02°)
1.05438689639126e+02	(6.01811525770423e+00dB,-1.78953749344903e+02°)
1.05681750921366e+02	(6.01812330088437e+00dB,-1.78956646421026e+02°)
1.05925372517729e+02	(6.01813130679303e+00dB,-1.78959537971943e+02°)
1.06169555719872e+02	(6.01813927559979e+00dB,-1.78962424012941e+02°)
1.06414301822431e+02	(6.01814720747344e+00dB,-1.78965304559277e+02°)
1.06659612123026e+02	(6.01815510258201e+00dB,-1.78968179626177e+02°)
1.06905487922266e+02	(6.01816296109273e+00dB,-1.78971049228842e+02°)
1.07151930523760e+02	(6.01817078317207e+00dB,-1.78973913382442e+02°)
1.07398941234124e+02	(6.01817856898571e+00dB,-1.78976772102119e+02°)
1.07646521362983e+02	(6.01818631869856e+00dB,-1.78979625402985e+02°)
1.07894672222983e+02	(6.01819403247482e+00dB,-1.78982473300127e+02°)
1.08143395129794e+02	(6.01820171047785e+00dB,-1.78985315808600e+02°)
1.08392691402120e+02	(6.01820935287032e+00dB,-1.78988152943433e+02°)
1.08642562361706e+02	(6.01821695981410e+00dB,-1.78990984719626e+02°)
1.08893009333343e+02	(6.01822453147034e+00dB,-1.78993811152152e+02°)
1.09144033644875e+02	(6.01823206799944e+00dB,-1.78996632255953e+02°)
1.09395636627209e+02	(6.01823956956104e+00dB,-1.78999448045946e+02°)
1.09647819614318e+02	(6.01824703631404e+00dB,-1.79002258537019e+02°)
1.09900583943252e+02	(6.01825446841663e+00dB,-1.79005063744032e+02°)
1.10153930954141e+02	(6.01826186602625e+00dB,-1.79007863681819e+02°)
1.10407861990207e+02	(6.01826922929959e+00dB,-1.79010658365183e+02°)
1.10662378397766e+02	(6.01827655839265e+00dB,-1.79013447808902e+02°)
1.10917481526240e+02	(6.01828385346069e+00dB,-1.79016232027725e+02°)
1.11173172728159e+02	(6.01829111465825e+00dB,-1.79019011036376e+02°)
1.11429453359173e+02	(6.01829834213914e+00dB,-1.79021784849549e+02°)
1.11686324778056e+02	(6.01830553605648e+00dB,-1.79024553481912e+02°)
1.11943788346715e+02	(6.01831269656268e+00dB,-1.79027316948106e+02°)
1.12201845430196e+02	(6.01831982380941e+00dB,-1.79030075262743e+02°)
1.12460497396692e+02	(6.01832691794767e+00dB,-1.79032828440410e+02°)
1.12719745617551e+02	(6.01833397912776e+00dB,-1.79035576495667e+02°)
1.12979591467279e+02	(6.01834100749925e+00dB,-1.79038319443046e+02°)
1.13240036323555e+02	(6.01834800321104e+00dB,-1.79041057297052e+02°)
1.13501081567231e+02	(6.01835496641134e+00dB,-1.79043790072165e+02°)
1.13762728582343e+02	(6.01836189724768e+00dB,-1.79046517782837e+02°)
1.14024978756116e+02	(6.01836879586686e+00dB,-1.79049240443494e+02°)
1.14287833478977e+02	(6.01837566241507e+00dB,-1.79051958068534e+02°)
1.14551294144553e+02	(6.01838249703774e+00dB,-1.79054670672330e+02°)
1.14815362149688e+02	(6.01838929987969e+00dB,-1.79057378269228e+02°)
1.15080038894443e+02	(6.01839607108504e+00dB,-1.79060080873549e+02°)
1.15345325782109e+02	(6.01840281079725e+00dB,-1.79062778499586e+02°)
1.15611224219210e+02	(6.01840951915909e+00dB,-1.79065471161607e+02°)
1.15877735615512e+02	(6.01841619631270e+00dB,-1.79068158873854e+02°)
1.16144861384034e+02	(6.01842284239953e+00dB,-1.79070841650541e+02°)
1.16412602941049e+02	(6.01842945756040e+00dB,-1.79073519505858e+02°)
1.16680961706096e+02	(6.01843604193544e+00dB,-1.79076192453970e+02°)
1.16949939101987e+02	(6.01844259566417e+00dB,-1.79078860509014e+02°)
1.17219536554813e+02	(6.01844911888543e+00dB,-1.79081523685102e+02°)
1.17489755493953e+02	(6.01845561173743e+00dB,-1.79084181996321e+02°)
1.17760597352080e+02	(6.01846207435773e+00dB,-1.79086835456732e+02°)
1.18032063565173e+02	(6.01846850688324e+00dB,-1.79089484080370e+02°)
1.18304155572516e+02	(6.01847490945026e+00dB,-1.79092127881247e+02°)
1.18576874816716e+02	(6.01848128219444e+00dB,-1.79094766873345e+02°)
1.18850222743701e+02	(6.01848762525080e+00dB,-1.79097401070626e+02°)
1.19124200802737e+02	(6.01849393875373e+00dB,-1.79100030487022e+02°)
1.19398810446427e+02	(6.01850022283699e+00dB,-1.79102655136444e+02°)
1.19674053130724e+02	(6.01850647763373e+00dB,-1.79105275032776e+02°)
1.19949930314937e+02	(6.01851270327647e+00dB,-1.79107890189876e+02°)
1.20226443461741e+02	(6.01851889989711e+00dB,-1.79110500621579e+02°)
1.20503594037179e+02	(6.01852506762696e+00dB,-1.79113106341695e+02°)
1.20781383510677e+02	(6.01853120659669e+00dB,-1.79115707364007e+02°)
1.21059813355048e+02	(6.01853731693636e+00dB,-1.79118303702276e+02°)
1.21338885046497e+02	(6.01854339877545e+00dB,-1.79120895370237e+02°)
1.21618600064636e+02	(6.01854945224281e+00dB,-1.79123482381601e+02°)
1.21898959892486e+02	(6.01855547746672e+00dB,-1.79126064750054e+02°)
1.22179966016487e+02	(6.01856147457482e+00dB,-1.79128642489258e+02°)
1.22461619926504e+02	(6.01856744369420e+00dB,-1.79131215612850e+02°)
1.22743923115840e+02	(6.01857338495132e+00dB,-1.79133784134444e+02°)
1.23026877081238e+02	(6.01857929847207e+00dB,-1.79136348067629e+02°)
1.23310483322890e+02	(6.01858518438175e+00dB,-1.79138907425970e+02°)
1.23594743344450e+02	(6.01859104280508e+00dB,-1.79141462223006e+02°)
1.23879658653036e+02	(6.01859687386618e+00dB,-1.79144012472257e+02°)
1.24165230759240e+02	(6.01860267768862e+00dB,-1.79146558187213e+02°)
1.24451461177138e+02	(6.01860845439536e+00dB,-1.79149099381345e+02°)
1.24738351424294e+02	(6.01861420410880e+00dB,-1.79151636068097e+02°)
1.25025903021771e+02	(6.01861992695079e+00dB,-1.79154168260892e+02°)
1.25314117494141e+02	(6.01862562304257e+00dB,-1.79156695973128e+02°)
1.25602996369487e+02	(6.01863129250486e+00dB,-1.79159219218177e+02°)
1.25892541179416e+02	(6.01863693545777e+00dB,-1.79161738009393e+02°)
1.26182753459066e+02	(6.01864255202088e+00dB,-1.79164252360102e+02°)
1.26473634747114e+02	(6.01864814231321e+00dB,-1.79166762283608e+02°)
1.26765186585784e+02	(6.01865370645320e+00dB,-1.79169267793192e+02°)
1.27057410520853e+02	(6.01865924455876e+00dB,-1.79171768902112e+02°)
1.27350308101665e+02	(6.01866475674723e+00dB,-1.79174265623602e+02°)
1.27643880881134e+02	(6.01867024313542e+00dB,-1.79176757970874e+02°)
1.27938130415752e+02	(6.01867570383960e+00dB,-1.79179245957115e+02°)
1.28233058265601e+02	(6.01868113897546e+00dB,-1.79181729595492e+02°)
1.28528665994361e+02	(6.01868654865818e+00dB,-1.79184208899147e+02°)
1.28824955169313e+02	(6.01869193300239e+00dB,-1.79186683881200e+02°)
1.29121927361353e+02	(6.01869729212219e+00dB,-1.79189154554748e+02°)
1.29419584144998e+02	(6.01870262613114e+00dB,-1.79191620932864e+02°)
1.29717927098395e+02	(6.01870793514226e+00dB,-1.79194083028602e+02°)
1.30016957803328e+02	(6.01871321926806e+00dB,-1.79196540854989e+02°)
1.30316677845229e+02	(6.01871847862051e+00dB,-1.79198994425033e+02°)
1.30617088813183e+02	(6.01872371331106e+00dB,-1.79201443751719e+02°)
1.30918192299940e+02	(6.01872892345062e+00dB,-1.79203888848007e+02°)
1.31219989901919e+02	(6.01873410914962e+00dB,-1.79206329726838e+02°)
1.31522483219223e+02	(6.01873927051795e+00dB,-1.79208766401129e+02°)
1.31825673855640e+02	(6.01874440766496e+00dB,-1.79211198883777e+02°)
1.32129563418657e+02	(6.01874952069953e+00dB,-1.79213627187653e+02°)
1.32434153519466e+02	(6.01875460973001e+00dB,-1.79216051325610e+02°)
1.32739445772973e+02	(6.01875967486423e+00dB,-1.79218471310477e+02°)
1.33045441797808e+02	(6.01876471620954e+00dB,-1.79220887155061e+02°)
1.33352143216332e+02	(6.01876973387276e+00dB,-1.79223298872149e+02°)
1.33659551654643e+02	(6.01877472796023e+00dB,-1.79225706474504e+02°)
1.33967668742593e+02	(6.01877969857778e+00dB,-1.79228109974869e+02°)
1.34276496113785e+02	(6.01878464583074e+00dB,-1.79230509385964e+02°)
1.34586035405594e+02	(6.01878956982395e+00dB,-1.79232904720489e+02°)
1.34896288259164e+02	(6.01879447066177e+00dB,-1.79235295991122e+02°)
1.35207256319427e+02	(6.01879934844803e+00dB,-1.79237683210518e+02°)
1.35518941235103e+02	(6.01880420328613e+00dB,-1.79240066391314e+02°)
1.35831344658714e+02	(6.01880903527893e+00dB,-1.79242445546122e+02°)
1.36144468246594e+02	(6.01881384452884e+00dB,-1.79244820687537e+02°)
1.36458313658891e+02	(6.01881863113777e+00dB,-1.79247191828128e+02°)
1.36772882559584e+02	(6.01882339520717e+00dB,-1.79249558980446e+02°)
1.37088176616484e+02	(6.01882813683800e+00dB,-1.79251922157022e+02°)
1.37404197501251e+02	(6.01883285613073e+00dB,-1.79254281370363e+02°)
1.37720946889394e+02	(6.01883755318538e+00dB,-1.79256636632956e+02°)
1.38038426460287e+02	(6.01884222810149e+00dB,-1.79258987957270e+02°)
1.38356637897177e+02	(6.01884688097813e+00dB,-1.79261335355749e+02°)
1.38675582887188e+02	(6.01885151191393e+00dB,-1.79263678840820e+02°)
1.38995263121334e+02	(6.01885612100700e+00dB,-1.79266018424887e+02°)
1.39315680294529e+02	(6.01886070835503e+00dB,-1.79268354120334e+02°)
1.39636836105593e+02	(6.01886527405525e+00dB,-1.79270685939525e+02°)
1.39958732257261e+02	(6.01886981820440e+00dB,-1.79273013894804e+02°)
1.40281370456195e+02	(6.01887434089878e+00dB,-1.79275337998493e+02°)
1.40604752412990e+02	(6.01887884223427e+00dB,-1.79277658262895e+02°)
1.40928879842186e+02	(6.01888332230623e+00dB,-1.79279974700293e+02°)
1.41253754462274e+02	(6.01888778120963e+00dB,-1.79282287322948e+02°)
1.41579377995707e+02	(6.01889221903896e+00dB,-1.79284596143104e+02°)
1.41905752168908e+02	(6.01889663588827e+00dB,-1.79286901172983e+02°)
1.42232878712281e+02	(6.01890103185116e+00dB,-1.79289202424786e+02°)
1.42560759360218e+02	(6.01890540702082e+00dB,-1.79291499910696e+02°)
1.42889395851109e+02	(6.01890976148994e+00dB,-1.79293793642876e+02°)
1.43218789927353e+02	(6.01891409535084e+00dB,-1.79296083633468e+02°)
1.43548943335364e+02	(6.01891840869535e+00dB,-1.79298369894595e+02°)
1.43879857825583e+02	(6.01892270161488e+00dB,-1.79300652438361e+02°)
1.44211535152486e+02	(6.01892697420042e+00dB,-1.79302931276849e+02°)
1.44543977074592e+02	(6.01893122654253e+00dB,-1.79305206422124e+02°)
1.44877185354475e+02	(6.01893545873131e+00dB,-1.79307477886230e+02°)
1.45211161758773e+02	(6.01893967085648e+00dB,-1.79309745681194e+02°)
1.45545908058195e+02	(6.01894386300730e+00dB,-1.79312009819020e+02°)
1.45881426027534e+02	(6.01894803527262e+00dB,-1.79314270311696e+02°)
1.46217717445671e+02	(6.01895218774086e+00dB,-1.79316527171190e+02°)
1.46554784095590e+02	(6.01895632050004e+00dB,-1.79318780409449e+02°)
1.46892627764385e+02	(6.01896043363773e+00dB,-1.79321030038404e+02°)
1.47231250243271e+02	(6.01896452724113e+00dB,-1.79323276069964e+02°)
1.47570653327588e+02	(6.01896860139698e+00dB,-1.79325518516021e+02°)
1.47910838816819e+02	(6.01897265619164e+00dB,-1.79327757388448e+02°)
1.48251808514594e+02	(6.01897669171104e+00dB,-1.79329992699098e+02°)
1.48593564228699e+02	(6.01898070804071e+00dB,-1.79332224459806e+02°)
1.48936107771090e+02	(6.01898470526579e+00dB,-1.79334452682389e+02°)
1.49279440957898e+02	(6.01898868347098e+00dB,-1.79336677378643e+02°)
1.49623565609442e+02	(6.01899264274060e+00dB,-1.79338898560348e+02°)
1.49968483550236e+02	(6.01899658315858e+00dB,-1.79341116239264e+02°)
1.50314196609001e+02	(6.01900050480841e+00dB,-1.79343330427134e+02°)
1.50660706618673e+02	(6.01900440777324e+00dB,-1.79345541135680e+02°)
1.51008015416413e+02	(6.01900829213576e+00dB,-1.79347748376609e+02°)
1.51356124843619e+02	(6.01901215797832e+00dB,-1.79349952161606e+02°)
1.51705036745932e+02	(6.01901600538285e+00dB,-1.79352152502341e+02°)
1.52054752973248e+02	(6.01901983443089e+00dB,-1.79354349410465e+02°)
1.52405275379728e+02	(6.01902364520360e+00dB,-1.79356542897609e+02°)
1.52756605823806e+02	(6.01902743778175e+00dB,-1.79358732975389e+02°)
1.53108746168201e+02	(6.01903121224573e+00dB,-1.79360919655401e+02°)
1.53461698279928e+02	(6.01903496867553e+00dB,-1.79363102949223e+02°)
1.53815464030302e+02	(6.01903870715078e+00dB,-1.79365282868416e+02°)
1.54170045294954e+02	(6.01904242775070e+00dB,-1.79367459424523e+02°)
1.54525443953840e+02	(6.01904613055417e+00dB,-1.79369632629070e+02°)
1.54881661891247e+02	(6.01904981563965e+00dB,-1.79371802493563e+02°)
1.55238700995807e+02	(6.01905348308527e+00dB,-1.79373969029493e+02°)
1.55596563160506e+02	(6.01905713296876e+00dB,-1.79376132248332e+02°)
1.55955250282694e+02	(6.01906076536746e+00dB,-1.79378292161536e+02°)
1.56314764264094e+02	(6.01906438035838e+00dB,-1.79380448780540e+02°)
1.56675107010813e+02	(6.01906797801814e+00dB,-1.79382602116767e+02°)
1.57036280433354e+02	(6.01907155842298e+00dB,-1.79384752181618e+02°)
1.57398286446620e+02	(6.01907512164881e+00dB,-1.79386898986479e+02°)
1.57761126969933e+02	(6.01907866777115e+00dB,-1.79389042542718e+02°)
1.58124803927037e+02	(6.01908219686515e+00dB,-1.79391182861686e+02°)
1.58489319246110e+02	(6.01908570900562e+00dB,-1.79393319954719e+02°)
1.58854674859776e+02	(6.01908920426702e+00dB,-1.79395453833132e+02°)
1.59220872705115e+02	(6.01909268272340e+00dB,-1.79397584508226e+02°)
1.59587914723672e+02	(6.01909614444852e+00dB,-1.79399711991285e+02°)
1.59955802861465e+02	(6.01909958951575e+00dB,-1.79401836293574e+02°)
1.60324539069002e+02	(6.01910301799810e+00dB,-1.79403957426344e+02°)
1.60694125301286e+02	(6.01910642996825e+00dB,-1.79406075400827e+02°)
1.61064563517825e+02	(6.01910982549852e+00dB,-1.79408190228240e+02°)
1.61435855682647e+02	(6.01911320466088e+00dB,-1.79410301919783e+02°)
1.61808003764305e+02	(6.01911656752695e+00dB,-1.79412410486638e+02°)
1.62181009735891e+02	(6.01911991416803e+00dB,-1.79414515939973e+02°)
1.62554875575047e+02	(6.01912324465503e+00dB,-1.79416618290937e+02°)
1.62929603263970e+02	(6.01912655905857e+00dB,-1.79418717550665e+02°)
1.63305194789432e+02	(6.01912985744890e+00dB,-1.79420813730275e+02°)
1.63681652142779e+02	(6.01913313989591e+00dB,-1.79422906840867e+02°)
1.64058977319952e+02	(6.01913640646921e+00dB,-1.79424996893527e+02°)
1.64437172321491e+02	(6.01913965723802e+00dB,-1.79427083899323e+02°)
1.64816239152549e+02	(6.01914289227125e+00dB,-1.79429167869310e+02°)
1.65196179822900e+02	(6.01914611163748e+00dB,-1.79431248814524e+02°)
1.65576996346951e+02	(6.01914931540493e+00dB,-1.79433326745985e+02°)
1.65958690743754e+02	(6.01915250364154e+00dB,-1.79435401674699e+02°)
1.66341265037015e+02	(6.01915567641486e+00dB,-1.79437473611656e+02°)
1.66724721255104e+02	(6.01915883379216e+00dB,-1.79439542567829e+02°)
1.67109061431069e+02	(6.01916197584037e+00dB,-1.79441608554175e+02°)
1.67494287602642e+02	(6.01916510262609e+00dB,-1.79443671581636e+02°)
1.67880401812254e+02	(6.01916821421558e+00dB,-1.79445731661140e+02°)
1.68267406107045e+02	(6.01917131067482e+00dB,-1.79447788803598e+02°)
1.68655302538872e+02	(6.01917439206944e+00dB,-1.79449843019903e+02°)
1.69044093164324e+02	(6.01917745846476e+00dB,-1.79451894320938e+02°)
1.69433780044731e+02	(6.01918050992577e+00dB,-1.79453942717565e+02°)
1.69824365246172e+02	(6.01918354651716e+00dB,-1.79455988220636e+02°)
1.70215850839493e+02	(6.01918656830330e+00dB,-1.79458030840983e+02°)
1.70608238900310e+02	(6.01918957534823e+00dB,-1.79460070589425e+02°)
1.71001531509027e+02	(6.01919256771570e+00dB,-1.79462107476767e+02°)
1.71395730750840e+02	(6.01919554546915e+00dB,-1.79464141513796e+02°)
1.71790838715757e+02	(6.01919850867169e+00dB,-1.79466172711287e+02°)
1.72186857498599e+02	(6.01920145738614e+00dB,-1.79468201079998e+02°)
1.72583789199018e+02	(6.01920439167500e+00dB,-1.79470226630672e+02°)
1.72981635921508e+02	(6.01920731160046e+00dB,-1.79472249374039e+02°)
1.73380399775412e+02	(6.01921021722444e+00dB,-1.79474269320812e+02°)
1.73780082874935e+02	(6.01921310860853e+00dB,-1.79476286481691e+02°)
1.74180687339159e+02	(6.01921598581399e+00dB,-1.79478300867360e+02°)
1.74582215292048e+02	(6.01921884890184e+00dB,-1.79480312488488e+02°)
1.74984668862463e+02	(6.01922169793276e+00dB,-1.79482321355732e+02°)
1.75388050184174e+02	(6.01922453296716e+00dB,-1.79484327479732e+02°)
1.75792361395867e+02	(6.01922735406511e+00dB,-1.79486330871114e+02°)
1.76197604641161e+02	(6.01923016128643e+00dB,-1.79488331540490e+02°)
1.76603782068614e+02	(6.01923295469063e+00dB,-1.79490329498458e+02°)
1.77010895831740e+02	(6.01923573433691e+00dB,-1.79492324755601e+02°)
1.77418948089014e+02	(6.01923850028420e+00dB,-1.79494317322487e+02°)
1.77827941003890e+02	(6.01924125259114e+00dB,-1.79496307209672e+02°)
1.78237876744807e+02	(6.01924399131607e+00dB,-1.79498294427696e+02°)
1.78648757485203e+02	(6.01924671651704e+00dB,-1.79500278987085e+02°)
1.79060585403527e+02	(6.01924942825183e+00dB,-1.79502260898352e+02°)
1.79473362683250e+02	(6.01925212657791e+00dB,-1.79504240171996e+02°)
1.79887091512876e+02	(6.01925481155250e+00dB,-1.79506216818501e+02°)
1.80301774085954e+02	(6.01925748323250e+00dB,-1.79508190848338e+02°)
1.80717412601090e+02	(6.01926014167455e+00dB,-1.79510162271963e+02°)
1.81134009261958e+02	(6.01926278693501e+00dB,-1.79512131099820e+02°)
1.81551566277311e+02	(6.01926541906995e+00dB,-1.79514097342339e+02°)
1.81970085860996e+02	(6.01926803813518e+00dB,-1.79516061009935e+02°)
1.82389570231961e+02	(6.01927064418620e+00dB,-1.79518022113009e+02°)
1.82810021614272e+02	(6.01927323727826e+00dB,-1.79519980661952e+02°)
1.83231442237119e+02	(6.01927581746635e+00dB,-1.79521936667138e+02°)
1.83653834334832e+02	(6.01927838480514e+00dB,-1.79523890138929e+02°)
1.84077200146893e+02	(6.01928093934907e+00dB,-1.79525841087674e+02°)
1.84501541917945e+02	(6.01928348115229e+00dB,-1.79527789523706e+02°)
1.84926861897805e+02	(6.01928601026868e+00dB,-1.79529735457349e+02°)
1.85353162341478e+02	(6.01928852675186e+00dB,-1.79531678898911e+02°)
1.85780445509167e+02	(6.01929103065518e+00dB,-1.79533619858686e+02°)
1.86208713666284e+02	(6.01929352203171e+00dB,-1.79535558346959e+02°)
1.86637969083464e+02	(6.01929600093427e+00dB,-1.79537494373997e+02°)
1.87068214036577e+02	(6.01929846741541e+00dB,-1.79539427950058e+02°)
1.87499450806739e+02	(6.01930092152741e+00dB,-1.79541359085384e+02°)
1.87931681680324e+02	(6.01930336332231e+00dB,-1.79543287790206e+02°)
1.88364908948977e+02	(6.01930579285186e+00dB,-1.79545214074742e+02°)
1.88799134909627e+02	(6.01930821016757e+00dB,-1.79547137949197e+02°)
1.89234361864495e+02	(6.01931061532069e+00dB,-1.79549059423762e+02°)
1.89670592121112e+02	(6.01931300836219e+00dB,-1.79550978508617e+02°)
1.90107827992327e+02	(6.01931538934282e+00dB,-1.79552895213930e+02°)
1.90546071796322e+02	(6.01931775831305e+00dB,-1.79554809549854e+02°)
1.90985325856621e+02	(6.01932011532310e+00dB,-1.79556721526531e+02°)
1.91425592502106e+02	(6.01932246042293e+00dB,-1.79558631154091e+02°)
1.91866874067026e+02	(6.01932479366226e+00dB,-1.79560538442650e+02°)
1.92309172891013e+02	(6.01932711509056e+00dB,-1.79562443402313e+02°)
