Freq.	V(n008)
1.00000000000000e+02	(8.77401528130439e+00dB,-1.78794453015348e+02°)
1.00230523807790e+02	(8.77402426252918e+00dB,-1.78797271474852e+02°)
1.00461579027839e+02	(8.77403320250444e+00dB,-1.78800083565290e+02°)
1.00693166885180e+02	(8.77404210141954e+00dB,-1.78802889301519e+02°)
1.00925288607668e+02	(8.77405095946294e+00dB,-1.78805688698362e+02°)
1.01157945425990e+02	(8.77405977682226e+00dB,-1.78808481770610e+02°)
1.01391138573668e+02	(8.77406855368422e+00dB,-1.78811268533019e+02°)
1.01624869287070e+02	(8.77407729023474e+00dB,-1.78814049000314e+02°)
1.01859138805412e+02	(8.77408598665884e+00dB,-1.78816823187184e+02°)
1.02093948370768e+02	(8.77409464314072e+00dB,-1.78819591108287e+02°)
1.02329299228075e+02	(8.77410325986373e+00dB,-1.78822352778249e+02°)
1.02565192625141e+02	(8.77411183701036e+00dB,-1.78825108211661e+02°)
1.02801629812647e+02	(8.77412037476228e+00dB,-1.78827857423083e+02°)
1.03038612044162e+02	(8.77412887330034e+00dB,-1.78830600427041e+02°)
1.03276140576140e+02	(8.77413733280452e+00dB,-1.78833337238030e+02°)
1.03514216667934e+02	(8.77414575345402e+00dB,-1.78836067870512e+02°)
1.03752841581801e+02	(8.77415413542718e+00dB,-1.78838792338915e+02°)
1.03992016582906e+02	(8.77416247890155e+00dB,-1.78841510657636e+02°)
1.04231742939330e+02	(8.77417078405384e+00dB,-1.78844222841040e+02°)
1.04472021922080e+02	(8.77417905105998e+00dB,-1.78846928903460e+02°)
1.04712854805090e+02	(8.77418728009506e+00dB,-1.78849628859195e+02°)
1.04954242865232e+02	(8.77419547133341e+00dB,-1.78852322722514e+02°)
1.05196187382322e+02	(8.77420362494850e+00dB,-1.78855010507654e+02°)
1.05438689639126e+02	(8.77421174111305e+00dB,-1.78857692228818e+02°)
1.05681750921366e+02	(8.77421981999898e+00dB,-1.78860367900178e+02°)
1.05925372517729e+02	(8.77422786177742e+00dB,-1.78863037535877e+02°)
1.06169555719872e+02	(8.77423586661870e+00dB,-1.78865701150022e+02°)
1.06414301822431e+02	(8.77424383469239e+00dB,-1.78868358756692e+02°)
1.06659612123026e+02	(8.77425176616726e+00dB,-1.78871010369931e+02°)
1.06905487922266e+02	(8.77425966121133e+00dB,-1.78873656003755e+02°)
1.07151930523760e+02	(8.77426751999183e+00dB,-1.78876295672147e+02°)
1.07398941234124e+02	(8.77427534267523e+00dB,-1.78878929389058e+02°)
1.07646521362983e+02	(8.77428312942723e+00dB,-1.78881557168408e+02°)
1.07894672222983e+02	(8.77429088041279e+00dB,-1.78884179024088e+02°)
1.08143395129794e+02	(8.77429859579610e+00dB,-1.78886794969954e+02°)
1.08392691402120e+02	(8.77430627574057e+00dB,-1.78889405019835e+02°)
1.08642562361706e+02	(8.77431392040892e+00dB,-1.78892009187526e+02°)
1.08893009333343e+02	(8.77432152996306e+00dB,-1.78894607486792e+02°)
1.09144033644875e+02	(8.77432910456421e+00dB,-1.78897199931368e+02°)
1.09395636627209e+02	(8.77433664437281e+00dB,-1.78899786534958e+02°)
1.09647819614318e+02	(8.77434414954859e+00dB,-1.78902367311235e+02°)
1.09900583943252e+02	(8.77435162025053e+00dB,-1.78904942273841e+02°)
1.10153930954141e+02	(8.77435905663689e+00dB,-1.78907511436387e+02°)
1.10407861990207e+02	(8.77436645886521e+00dB,-1.78910074812456e+02°)
1.10662378397766e+02	(8.77437382709230e+00dB,-1.78912632415597e+02°)
1.10917481526240e+02	(8.77438116147423e+00dB,-1.78915184259332e+02°)
1.11173172728159e+02	(8.77438846216640e+00dB,-1.78917730357152e+02°)
1.11429453359173e+02	(8.77439572932345e+00dB,-1.78920270722515e+02°)
1.11686324778056e+02	(8.77440296309935e+00dB,-1.78922805368853e+02°)
1.11943788346715e+02	(8.77441016364733e+00dB,-1.78925334309564e+02°)
1.12201845430196e+02	(8.77441733111994e+00dB,-1.78927857558020e+02°)
1.12460497396692e+02	(8.77442446566901e+00dB,-1.78930375127560e+02°)
1.12719745617551e+02	(8.77443156744570e+00dB,-1.78932887031495e+02°)
1.12979591467279e+02	(8.77443863660046e+00dB,-1.78935393283104e+02°)
1.13240036323555e+02	(8.77444567328304e+00dB,-1.78937893895639e+02°)
1.13501081567231e+02	(8.77445267764252e+00dB,-1.78940388882321e+02°)
1.13762728582343e+02	(8.77445964982729e+00dB,-1.78942878256340e+02°)
1.14024978756116e+02	(8.77446658998506e+00dB,-1.78945362030860e+02°)
1.14287833478977e+02	(8.77447349826285e+00dB,-1.78947840219013e+02°)
1.14551294144553e+02	(8.77448037480703e+00dB,-1.78950312833902e+02°)
1.14815362149688e+02	(8.77448721976329e+00dB,-1.78952779888600e+02°)
1.15080038894443e+02	(8.77449403327663e+00dB,-1.78955241396153e+02°)
1.15345325782109e+02	(8.77450081549141e+00dB,-1.78957697369576e+02°)
1.15611224219210e+02	(8.77450756655131e+00dB,-1.78960147821856e+02°)
1.15877735615512e+02	(8.77451428659937e+00dB,-1.78962592765949e+02°)
1.16144861384034e+02	(8.77452097577796e+00dB,-1.78965032214784e+02°)
1.16412602941049e+02	(8.77452763422879e+00dB,-1.78967466181261e+02°)
1.16680961706096e+02	(8.77453426209294e+00dB,-1.78969894678251e+02°)
1.16949939101987e+02	(8.77454085951083e+00dB,-1.78972317718595e+02°)
1.17219536554813e+02	(8.77454742662223e+00dB,-1.78974735315106e+02°)
1.17489755493953e+02	(8.77455396356629e+00dB,-1.78977147480569e+02°)
1.17760597352080e+02	(8.77456047048149e+00dB,-1.78979554227740e+02°)
1.18032063565173e+02	(8.77456694750570e+00dB,-1.78981955569347e+02°)
1.18304155572516e+02	(8.77457339477614e+00dB,-1.78984351518088e+02°)
1.18576874816716e+02	(8.77457981242943e+00dB,-1.78986742086635e+02°)
1.18850222743701e+02	(8.77458620060153e+00dB,-1.78989127287629e+02°)
1.19124200802737e+02	(8.77459255942778e+00dB,-1.78991507133686e+02°)
1.19398810446427e+02	(8.77459888904292e+00dB,-1.78993881637390e+02°)
1.19674053130724e+02	(8.77460518958105e+00dB,-1.78996250811300e+02°)
1.19949930314937e+02	(8.77461146117566e+00dB,-1.78998614667945e+02°)
1.20226443461741e+02	(8.77461770395964e+00dB,-1.79000973219829e+02°)
1.20503594037179e+02	(8.77462391806527e+00dB,-1.79003326479423e+02°)
1.20781383510677e+02	(8.77463010362419e+00dB,-1.79005674459175e+02°)
1.21059813355048e+02	(8.77463626076747e+00dB,-1.79008017171503e+02°)
1.21338885046497e+02	(8.77464238962558e+00dB,-1.79010354628798e+02°)
1.21618600064636e+02	(8.77464849032835e+00dB,-1.79012686843422e+02°)
1.21898959892486e+02	(8.77465456300507e+00dB,-1.79015013827711e+02°)
1.22179966016487e+02	(8.77466060778440e+00dB,-1.79017335593972e+02°)
1.22461619926504e+02	(8.77466662479442e+00dB,-1.79019652154487e+02°)
1.22743923115840e+02	(8.77467261416262e+00dB,-1.79021963521508e+02°)
1.23026877081238e+02	(8.77467857601591e+00dB,-1.79024269707260e+02°)
1.23310483322890e+02	(8.77468451048060e+00dB,-1.79026570723942e+02°)
1.23594743344450e+02	(8.77469041768246e+00dB,-1.79028866583726e+02°)
1.23879658653036e+02	(8.77469629774663e+00dB,-1.79031157298755e+02°)
1.24165230759240e+02	(8.77470215079772e+00dB,-1.79033442881146e+02°)
1.24451461177138e+02	(8.77470797695975e+00dB,-1.79035723342989e+02°)
1.24738351424294e+02	(8.77471377635615e+00dB,-1.79037998696348e+02°)
1.25025903021771e+02	(8.77471954910982e+00dB,-1.79040268953257e+02°)
1.25314117494141e+02	(8.77472529534309e+00dB,-1.79042534125727e+02°)
1.25602996369487e+02	(8.77473101517770e+00dB,-1.79044794225740e+02°)
1.25892541179416e+02	(8.77473670873487e+00dB,-1.79047049265251e+02°)
1.26182753459066e+02	(8.77474237613523e+00dB,-1.79049299256191e+02°)
1.26473634747114e+02	(8.77474801749887e+00dB,-1.79051544210460e+02°)
1.26765186585784e+02	(8.77475363294533e+00dB,-1.79053784139936e+02°)
1.27057410520853e+02	(8.77475922259361e+00dB,-1.79056019056468e+02°)
1.27350308101665e+02	(8.77476478656213e+00dB,-1.79058248971879e+02°)
1.27643880881134e+02	(8.77477032496882e+00dB,-1.79060473897966e+02°)
1.27938130415752e+02	(8.77477583793101e+00dB,-1.79062693846499e+02°)
1.28233058265601e+02	(8.77478132556555e+00dB,-1.79064908829223e+02°)
1.28528665994361e+02	(8.77478678798870e+00dB,-1.79067118857856e+02°)
1.28824955169313e+02	(8.77479222531622e+00dB,-1.79069323944091e+02°)
1.29121927361353e+02	(8.77479763766333e+00dB,-1.79071524099592e+02°)
1.29419584144998e+02	(8.77480302514471e+00dB,-1.79073719336001e+02°)
1.29717927098395e+02	(8.77480838787453e+00dB,-1.79075909664931e+02°)
1.30016957803328e+02	(8.77481372596644e+00dB,-1.79078095097971e+02°)
1.30316677845229e+02	(8.77481903953353e+00dB,-1.79080275646683e+02°)
1.30617088813183e+02	(8.77482432868844e+00dB,-1.79082451322605e+02°)
1.30918192299940e+02	(8.77482959354321e+00dB,-1.79084622137247e+02°)
1.31219989901919e+02	(8.77483483420943e+00dB,-1.79086788102094e+02°)
1.31522483219223e+02	(8.77484005079814e+00dB,-1.79088949228608e+02°)
1.31825673855640e+02	(8.77484524341990e+00dB,-1.79091105528222e+02°)
1.32129563418657e+02	(8.77485041218474e+00dB,-1.79093257012346e+02°)
1.32434153519466e+02	(8.77485555720220e+00dB,-1.79095403692363e+02°)
1.32739445772973e+02	(8.77486067858130e+00dB,-1.79097545579631e+02°)
1.33045441797808e+02	(8.77486577643057e+00dB,-1.79099682685484e+02°)
1.33352143216332e+02	(8.77487085085804e+00dB,-1.79101815021230e+02°)
1.33659551654643e+02	(8.77487590197125e+00dB,-1.79103942598151e+02°)
1.33967668742593e+02	(8.77488092987724e+00dB,-1.79106065427506e+02°)
1.34276496113785e+02	(8.77488593468255e+00dB,-1.79108183520527e+02°)
1.34586035405594e+02	(8.77489091649325e+00dB,-1.79110296888421e+02°)
1.34896288259164e+02	(8.77489587541493e+00dB,-1.79112405542372e+02°)
1.35207256319427e+02	(8.77490081155264e+00dB,-1.79114509493538e+02°)
1.35518941235103e+02	(8.77490572501100e+00dB,-1.79116608753051e+02°)
1.35831344658714e+02	(8.77491061589416e+00dB,-1.79118703332022e+02°)
1.36144468246594e+02	(8.77491548430574e+00dB,-1.79120793241532e+02°)
1.36458313658891e+02	(8.77492033034892e+00dB,-1.79122878492642e+02°)
1.36772882559584e+02	(8.77492515412642e+00dB,-1.79124959096386e+02°)
1.37088176616484e+02	(8.77492995574043e+00dB,-1.79127035063775e+02°)
1.37404197501251e+02	(8.77493473529273e+00dB,-1.79129106405793e+02°)
1.37720946889394e+02	(8.77493949288460e+00dB,-1.79131173133404e+02°)
1.38038426460287e+02	(8.77494422861687e+00dB,-1.79133235257543e+02°)
1.38356637897177e+02	(8.77494894258991e+00dB,-1.79135292789123e+02°)
1.38675582887188e+02	(8.77495363490361e+00dB,-1.79137345739034e+02°)
1.38995263121334e+02	(8.77495830565742e+00dB,-1.79139394118139e+02°)
1.39315680294529e+02	(8.77496295495033e+00dB,-1.79141437937278e+02°)
1.39636836105593e+02	(8.77496758288085e+00dB,-1.79143477207269e+02°)
1.39958732257261e+02	(8.77497218954709e+00dB,-1.79145511938903e+02°)
1.40281370456195e+02	(8.77497677504666e+00dB,-1.79147542142949e+02°)
1.40604752412990e+02	(8.77498133947674e+00dB,-1.79149567830151e+02°)
1.40928879842186e+02	(8.77498588293406e+00dB,-1.79151589011230e+02°)
1.41253754462274e+02	(8.77499040551493e+00dB,-1.79153605696883e+02°)
1.41579377995707e+02	(8.77499490731518e+00dB,-1.79155617897783e+02°)
1.41905752168908e+02	(8.77499938843023e+00dB,-1.79157625624580e+02°)
1.42232878712281e+02	(8.77500384895505e+00dB,-1.79159628887900e+02°)
1.42560759360218e+02	(8.77500828898416e+00dB,-1.79161627698344e+02°)
1.42889395851109e+02	(8.77501270861167e+00dB,-1.79163622066494e+02°)
1.43218789927353e+02	(8.77501710793125e+00dB,-1.79165612002902e+02°)
1.43548943335364e+02	(8.77502148703614e+00dB,-1.79167597518103e+02°)
1.43879857825583e+02	(8.77502584601913e+00dB,-1.79169578622605e+02°)
1.44211535152486e+02	(8.77503018497262e+00dB,-1.79171555326893e+02°)
1.44543977074592e+02	(8.77503450398856e+00dB,-1.79173527641430e+02°)
1.44877185354475e+02	(8.77503880315851e+00dB,-1.79175495576655e+02°)
1.45211161758773e+02	(8.77504308257355e+00dB,-1.79177459142985e+02°)
1.45545908058195e+02	(8.77504734232441e+00dB,-1.79179418350811e+02°)
1.45881426027534e+02	(8.77505158250135e+00dB,-1.79181373210506e+02°)
1.46217717445671e+02	(8.77505580319425e+00dB,-1.79183323732415e+02°)
1.46554784095590e+02	(8.77506000449255e+00dB,-1.79185269926863e+02°)
1.46892627764385e+02	(8.77506418648531e+00dB,-1.79187211804152e+02°)
1.47231250243271e+02	(8.77506834926116e+00dB,-1.79189149374560e+02°)
1.47570653327588e+02	(8.77507249290832e+00dB,-1.79191082648343e+02°)
1.47910838816819e+02	(8.77507661751462e+00dB,-1.79193011635735e+02°)
1.48251808514594e+02	(8.77508072316747e+00dB,-1.79194936346946e+02°)
1.48593564228699e+02	(8.77508480995390e+00dB,-1.79196856792165e+02°)
1.48936107771090e+02	(8.77508887796052e+00dB,-1.79198772981557e+02°)
1.49279440957898e+02	(8.77509292727355e+00dB,-1.79200684925265e+02°)
1.49623565609442e+02	(8.77509695797882e+00dB,-1.79202592633410e+02°)
1.49968483550236e+02	(8.77510097016174e+00dB,-1.79204496116091e+02°)
1.50314196609001e+02	(8.77510496390738e+00dB,-1.79206395383384e+02°)
1.50660706618673e+02	(8.77510893930037e+00dB,-1.79208290445343e+02°)
1.51008015416413e+02	(8.77511289642496e+00dB,-1.79210181312000e+02°)
1.51356124843619e+02	(8.77511683536504e+00dB,-1.79212067993363e+02°)
1.51705036745932e+02	(8.77512075620408e+00dB,-1.79213950499421e+02°)
1.52054752973248e+02	(8.77512465902519e+00dB,-1.79215828840140e+02°)
1.52405275379728e+02	(8.77512854391109e+00dB,-1.79217703025462e+02°)
1.52756605823806e+02	(8.77513241094412e+00dB,-1.79219573065309e+02°)
1.53108746168201e+02	(8.77513626020625e+00dB,-1.79221438969581e+02°)
1.53461698279928e+02	(8.77514009177905e+00dB,-1.79223300748156e+02°)
1.53815464030302e+02	(8.77514390574375e+00dB,-1.79225158410891e+02°)
1.54170045294954e+02	(8.77514770218118e+00dB,-1.79227011967618e+02°)
1.54525443953840e+02	(8.77515148117181e+00dB,-1.79228861428152e+02°)
1.54881661891247e+02	(8.77515524279574e+00dB,-1.79230706802284e+02°)
1.55238700995807e+02	(8.77515898713271e+00dB,-1.79232548099782e+02°)
1.55596563160506e+02	(8.77516271426206e+00dB,-1.79234385330395e+02°)
1.55955250282694e+02	(8.77516642426280e+00dB,-1.79236218503849e+02°)
1.56314764264094e+02	(8.77517011721356e+00dB,-1.79238047629850e+02°)
1.56675107010813e+02	(8.77517379319263e+00dB,-1.79239872718082e+02°)
1.57036280433354e+02	(8.77517745227792e+00dB,-1.79241693778206e+02°)
1.57398286446620e+02	(8.77518109454698e+00dB,-1.79243510819865e+02°)
1.57761126969933e+02	(8.77518472007703e+00dB,-1.79245323852678e+02°)
1.58124803927037e+02	(8.77518832894489e+00dB,-1.79247132886244e+02°)
1.58489319246110e+02	(8.77519192122708e+00dB,-1.79248937930140e+02°)
1.58854674859776e+02	(8.77519549699973e+00dB,-1.79250738993925e+02°)
1.59220872705115e+02	(8.77519905633864e+00dB,-1.79252536087132e+02°)
1.59587914723672e+02	(8.77520259931924e+00dB,-1.79254329219277e+02°)
1.59955802861465e+02	(8.77520612601664e+00dB,-1.79256118399854e+02°)
1.60324539069002e+02	(8.77520963650559e+00dB,-1.79257903638336e+02°)
1.60694125301286e+02	(8.77521313086050e+00dB,-1.79259684944175e+02°)
1.61064563517825e+02	(8.77521660915545e+00dB,-1.79261462326801e+02°)
1.61435855682647e+02	(8.77522007146416e+00dB,-1.79263235795627e+02°)
1.61808003764305e+02	(8.77522351786000e+00dB,-1.79265005360041e+02°)
1.62181009735891e+02	(8.77522694841605e+00dB,-1.79266771029414e+02°)
1.62554875575047e+02	(8.77523036320501e+00dB,-1.79268532813094e+02°)
1.62929603263970e+02	(8.77523376229927e+00dB,-1.79270290720409e+02°)
1.63305194789432e+02	(8.77523714577087e+00dB,-1.79272044760667e+02°)
1.63681652142779e+02	(8.77524051369154e+00dB,-1.79273794943157e+02°)
1.64058977319952e+02	(8.77524386613268e+00dB,-1.79275541277143e+02°)
1.64437172321491e+02	(8.77524720316532e+00dB,-1.79277283771875e+02°)
1.64816239152549e+02	(8.77525052486023e+00dB,-1.79279022436577e+02°)
1.65196179822900e+02	(8.77525383128779e+00dB,-1.79280757280457e+02°)
1.65576996346951e+02	(8.77525712251810e+00dB,-1.79282488312700e+02°)
1.65958690743754e+02	(8.77526039862093e+00dB,-1.79284215542472e+02°)
1.66341265037015e+02	(8.77526365966571e+00dB,-1.79285938978919e+02°)
1.66724721255104e+02	(8.77526690572158e+00dB,-1.79287658631167e+02°)
1.67109061431069e+02	(8.77527013685734e+00dB,-1.79289374508322e+02°)
1.67494287602642e+02	(8.77527335314148e+00dB,-1.79291086619470e+02°)
1.67880401812254e+02	(8.77527655464218e+00dB,-1.79292794973677e+02°)
1.68267406107045e+02	(8.77527974142731e+00dB,-1.79294499579988e+02°)
1.68655302538872e+02	(8.77528291356441e+00dB,-1.79296200447431e+02°)
1.69044093164324e+02	(8.77528607112073e+00dB,-1.79297897585011e+02°)
1.69433780044731e+02	(8.77528921416319e+00dB,-1.79299591001717e+02°)
1.69824365246172e+02	(8.77529234275843e+00dB,-1.79301280706515e+02°)
1.70215850839493e+02	(8.77529545697277e+00dB,-1.79302966708352e+02°)
1.70608238900310e+02	(8.77529855687222e+00dB,-1.79304649016158e+02°)
1.71001531509027e+02	(8.77530164252247e+00dB,-1.79306327638841e+02°)
1.71395730750840e+02	(8.77530471398896e+00dB,-1.79308002585289e+02°)
1.71790838715757e+02	(8.77530777133679e+00dB,-1.79309673864373e+02°)
1.72186857498599e+02	(8.77531081463076e+00dB,-1.79311341484943e+02°)
1.72583789199018e+02	(8.77531384393538e+00dB,-1.79313005455830e+02°)
1.72981635921508e+02	(8.77531685931488e+00dB,-1.79314665785846e+02°)
1.73380399775412e+02	(8.77531986083316e+00dB,-1.79316322483783e+02°)
1.73780082874935e+02	(8.77532284855387e+00dB,-1.79317975558415e+02°)
1.74180687339159e+02	(8.77532582254033e+00dB,-1.79319625018496e+02°)
1.74582215292048e+02	(8.77532878285559e+00dB,-1.79321270872761e+02°)
1.74984668862463e+02	(8.77533172956239e+00dB,-1.79322913129925e+02°)
1.75388050184174e+02	(8.77533466272321e+00dB,-1.79324551798688e+02°)
1.75792361395867e+02	(8.77533758240023e+00dB,-1.79326186887725e+02°)
1.76197604641161e+02	(8.77534048865532e+00dB,-1.79327818405697e+02°)
1.76603782068614e+02	(8.77534338155010e+00dB,-1.79329446361244e+02°)
1.77010895831740e+02	(8.77534626114591e+00dB,-1.79331070762987e+02°)
1.77418948089014e+02	(8.77534912750377e+00dB,-1.79332691619529e+02°)
1.77827941003890e+02	(8.77535198068447e+00dB,-1.79334308939455e+02°)
1.78237876744807e+02	(8.77535482074846e+00dB,-1.79335922731329e+02°)
1.78648757485203e+02	(8.77535764775596e+00dB,-1.79337533003698e+02°)
1.79060585403527e+02	(8.77536046176690e+00dB,-1.79339139765090e+02°)
1.79473362683250e+02	(8.77536326284094e+00dB,-1.79340743024016e+02°)
1.79887091512876e+02	(8.77536605103744e+00dB,-1.79342342788965e+02°)
1.80301774085954e+02	(8.77536882641554e+00dB,-1.79343939068410e+02°)
1.80717412601090e+02	(8.77537158903404e+00dB,-1.79345531870806e+02°)
1.81134009261958e+02	(8.77537433895152e+00dB,-1.79347121204589e+02°)
1.81551566277311e+02	(8.77537707622627e+00dB,-1.79348707078175e+02°)
1.81970085860996e+02	(8.77537980091632e+00dB,-1.79350289499964e+02°)
1.82389570231961e+02	(8.77538251307943e+00dB,-1.79351868478338e+02°)
1.82810021614272e+02	(8.77538521277310e+00dB,-1.79353444021658e+02°)
1.83231442237119e+02	(8.77538790005456e+00dB,-1.79355016138269e+02°)
1.83653834334832e+02	(8.77539057498076e+00dB,-1.79356584836498e+02°)
1.84077200146893e+02	(8.77539323760843e+00dB,-1.79358150124653e+02°)
1.84501541917945e+02	(8.77539588799401e+00dB,-1.79359712011025e+02°)
1.84926861897805e+02	(8.77539852619367e+00dB,-1.79361270503886e+02°)
1.85353162341478e+02	(8.77540115226336e+00dB,-1.79362825611491e+02°)
1.85780445509167e+02	(8.77540376625875e+00dB,-1.79364377342076e+02°)
1.86208713666284e+02	(8.77540636823522e+00dB,-1.79365925703859e+02°)
1.86637969083464e+02	(8.77540895824797e+00dB,-1.79367470705043e+02°)
1.87068214036577e+02	(8.77541153635189e+00dB,-1.79369012353809e+02°)
1.87499450806739e+02	(8.77541410260164e+00dB,-1.79370550658325e+02°)
1.87931681680324e+02	(8.77541665705162e+00dB,-1.79372085626736e+02°)
1.88364908948977e+02	(8.77541919975598e+00dB,-1.79373617267174e+02°)
1.88799134909627e+02	(8.77542173076863e+00dB,-1.79375145587751e+02°)
1.89234361864495e+02	(8.77542425014322e+00dB,-1.79376670596562e+02°)
1.89670592121112e+02	(8.77542675793316e+00dB,-1.79378192301684e+02°)
1.90107827992327e+02	(8.77542925419162e+00dB,-1.79379710711179e+02°)
1.90546071796322e+02	(8.77543173897152e+00dB,-1.79381225833088e+02°)
1.90985325856621e+02	(8.77543421232554e+00dB,-1.79382737675436e+02°)
1.91425592502106e+02	(8.77543667430609e+00dB,-1.79384246246232e+02°)
1.91866874067026e+02	(8.77543912496540e+00dB,-1.79385751553466e+02°)
1.92309172891013e+02	(8.77544156435540e+00dB,-1.79387253605112e+02°)
