Freq.	V(n003)
1.00000000000000e+00	(2.60667551591590e+00dB,-3.38401701432849e-03°)
1.00230523807790e+00	(2.60667551658979e+00dB,-3.39181797178425e-03°)
1.00461579027839e+00	(2.60667551726697e+00dB,-3.39963688292462e-03°)
1.00693166885180e+00	(2.60667551794723e+00dB,-3.40747389023894e-03°)
1.00925288607668e+00	(2.60667551863044e+00dB,-3.41532889194960e-03°)
1.01157945425990e+00	(2.60667551931715e+00dB,-3.42320211196787e-03°)
1.01391138573668e+00	(2.60667552000673e+00dB,-3.43109336709394e-03°)
1.01624869287070e+00	(2.60667552069954e+00dB,-3.43900284052790e-03°)
1.01859138805412e+00	(2.60667552139560e+00dB,-3.44693057298113e-03°)
1.02093948370768e+00	(2.60667552209487e+00dB,-3.45487656445382e-03°)
1.02329299228075e+00	(2.60667552279732e+00dB,-3.46284083530180e-03°)
1.02565192625141e+00	(2.60667552350321e+00dB,-3.47082352801411e-03°)
1.02801629812647e+00	(2.60667552421206e+00dB,-3.47882458152440e-03°)
1.03038612044162e+00	(2.60667552492438e+00dB,-3.48684413832152e-03°)
1.03276140576140e+00	(2.60667552564000e+00dB,-3.49488217805042e-03°)
1.03514216667934e+00	(2.60667552635881e+00dB,-3.50293865999969e-03°)
1.03752841581801e+00	(2.60667552708094e+00dB,-3.51101376737009e-03°)
1.03992016582906e+00	(2.60667552780641e+00dB,-3.51910747980598e-03°)
1.04231742939330e+00	(2.60667552853537e+00dB,-3.52721989908526e-03°)
1.04472021922080e+00	(2.60667552926760e+00dB,-3.53535098449723e-03°)
1.04712854805090e+00	(2.60667553000311e+00dB,-3.54350079710864e-03°)
1.04954242865232e+00	(2.60667553074206e+00dB,-3.55166937763084e-03°)
1.05196187382322e+00	(2.60667553148462e+00dB,-3.55985682784165e-03°)
1.05438689639126e+00	(2.60667553223036e+00dB,-3.56806312738602e-03°)
1.05681750921366e+00	(2.60667553297970e+00dB,-3.57628841875306e-03°)
1.05925372517729e+00	(2.60667553373249e+00dB,-3.58453262052033e-03°)
1.06169555719872e+00	(2.60667553448875e+00dB,-3.59279581411050e-03°)
1.06414301822431e+00	(2.60667553524846e+00dB,-3.60107806059051e-03°)
1.06659612123026e+00	(2.60667553601167e+00dB,-3.60937942102722e-03°)
1.06905487922266e+00	(2.60667553677827e+00dB,-3.61769985470977e-03°)
1.07151930523760e+00	(2.60667553754859e+00dB,-3.62603952448250e-03°)
1.07398941234124e+00	(2.60667553832252e+00dB,-3.63439840999030e-03°)
1.07646521362983e+00	(2.60667553909992e+00dB,-3.64277659265579e-03°)
1.07894672222983e+00	(2.60667553988081e+00dB,-3.65117401141204e-03°)
1.08143395129794e+00	(2.60667554066541e+00dB,-3.65959086981551e-03°)
1.08392691402120e+00	(2.60667554145363e+00dB,-3.66802704573216e-03°)
1.08642562361706e+00	(2.60667554224548e+00dB,-3.67648276307405e-03°)
1.08893009333343e+00	(2.60667554304104e+00dB,-3.68495796077453e-03°)
1.09144033644875e+00	(2.60667554384018e+00dB,-3.69345263883364e-03°)
1.09395636627209e+00	(2.60667554464300e+00dB,-3.70196689902947e-03°)
1.09647819614318e+00	(2.60667554544968e+00dB,-3.71050088385123e-03°)
1.09900583943252e+00	(2.60667554625993e+00dB,-3.71905443045440e-03°)
1.10153930954141e+00	(2.60667554707397e+00dB,-3.72762774239504e-03°)
1.10407861990207e+00	(2.60667554789182e+00dB,-3.73622081967326e-03°)
1.10662378397766e+00	(2.60667554871339e+00dB,-3.74483368264477e-03°)
1.10917481526240e+00	(2.60667554953875e+00dB,-3.75346643308772e-03°)
1.11173172728159e+00	(2.60667555036788e+00dB,-3.76211903029111e-03°)
1.11429453359173e+00	(2.60667555120083e+00dB,-3.77079161674399e-03°)
1.11686324778056e+00	(2.60667555203768e+00dB,-3.77948419244667e-03°)
1.11943788346715e+00	(2.60667555287854e+00dB,-3.78819685917707e-03°)
1.12201845430196e+00	(2.60667555372298e+00dB,-3.79692951515771e-03°)
1.12460497396692e+00	(2.60667555457152e+00dB,-3.80568234358868e-03°)
1.12719745617551e+00	(2.60667555542402e+00dB,-3.81445536482584e-03°)
1.12979591467279e+00	(2.60667555628021e+00dB,-3.82324855851393e-03°)
1.13240036323555e+00	(2.60667555714046e+00dB,-3.83206204678647e-03°)
1.13501081567231e+00	(2.60667555800482e+00dB,-3.84089589071015e-03°)
1.13762728582343e+00	(2.60667555887307e+00dB,-3.84975009028545e-03°)
1.14024978756117e+00	(2.60667555974528e+00dB,-3.85862462515673e-03°)
1.14287833478977e+00	(2.60667556062162e+00dB,-3.86751969888017e-03°)
1.14551294144553e+00	(2.60667556150195e+00dB,-3.87643527074469e-03°)
1.14815362149688e+00	(2.60667556238630e+00dB,-3.88537136110594e-03°)
1.15080038894443e+00	(2.60667556327473e+00dB,-3.89432807174209e-03°)
1.15345325782109e+00	(2.60667556416740e+00dB,-3.90330544336419e-03°)
1.15611224219210e+00	(2.60667556506410e+00dB,-3.91230345561720e-03°)
1.15877735615512e+00	(2.60667556596489e+00dB,-3.92132223063461e-03°)
1.16144861384034e+00	(2.60667556686993e+00dB,-3.93036187019466e-03°)
1.16412602941049e+00	(2.60667556777900e+00dB,-3.93942225216361e-03°)
1.16680961706096e+00	(2.60667556869247e+00dB,-3.94850355974228e-03°)
1.16949939101987e+00	(2.60667556961006e+00dB,-3.95760579293073e-03°)
1.17219536554813e+00	(2.60667557053193e+00dB,-3.96672907386252e-03°)
1.17489755493953e+00	(2.60667557145795e+00dB,-3.97587330075983e-03°)
1.17760597352080e+00	(2.60667557238835e+00dB,-3.98503867717874e-03°)
1.18032063565173e+00	(2.60667557332295e+00dB,-3.99422512169727e-03°)
1.18304155572516e+00	(2.60667557426181e+00dB,-4.00343271573763e-03°)
1.18576874816716e+00	(2.60667557520514e+00dB,-4.01266160178915e-03°)
1.18850222743701e+00	(2.60667557615279e+00dB,-4.02191173914085e-03°)
1.19124200802737e+00	(2.60667557710486e+00dB,-4.03118324992646e-03°)
1.19398810446427e+00	(2.60667557806123e+00dB,-4.04047603236817e-03°)
1.19674053130724e+00	(2.60667557902215e+00dB,-4.04979031037744e-03°)
1.19949930314937e+00	(2.60667557998737e+00dB,-4.05912602288786e-03°)
1.20226443461741e+00	(2.60667558095699e+00dB,-4.06848329203309e-03°)
1.20503594037179e+00	(2.60667558193124e+00dB,-4.07786209745756e-03°)
1.20781383510677e+00	(2.60667558290998e+00dB,-4.08726254093935e-03°)
1.21059813355048e+00	(2.60667558389314e+00dB,-4.09668468354575e-03°)
1.21338885046497e+00	(2.60667558488093e+00dB,-4.10612852527647e-03°)
1.21618600064636e+00	(2.60667558587319e+00dB,-4.11559410684300e-03°)
1.21898959892486e+00	(2.60667558687008e+00dB,-4.12508153002345e-03°)
1.22179966016487e+00	(2.60667558787157e+00dB,-4.13459083552921e-03°)
1.22461619926504e+00	(2.60667558887778e+00dB,-4.14412206407131e-03°)
1.22743923115840e+00	(2.60667558988839e+00dB,-4.15367521565048e-03°)
1.23026877081238e+00	(2.60667559090391e+00dB,-4.16325047346661e-03°)
1.23310483322890e+00	(2.60667559192392e+00dB,-4.17284769503103e-03°)
1.23594743344450e+00	(2.60667559294873e+00dB,-4.18246712461097e-03°)
1.23879658653036e+00	(2.60667559397828e+00dB,-4.19210870113964e-03°)
1.24165230759240e+00	(2.60667559501263e+00dB,-4.20177252639520e-03°)
1.24451461177138e+00	(2.60667559605180e+00dB,-4.21145864108896e-03°)
1.24738351424294e+00	(2.60667559709562e+00dB,-4.22116704522120e-03°)
1.25025903021771e+00	(2.60667559814431e+00dB,-4.23089784057008e-03°)
1.25314117494141e+00	(2.60667559919774e+00dB,-4.24065104749117e-03°)
1.25602996369487e+00	(2.60667560025623e+00dB,-4.25042676776245e-03°)
1.25892541179416e+00	(2.60667560131946e+00dB,-4.26022500138436e-03°)
1.26182753459066e+00	(2.60667560238759e+00dB,-4.27004585013501e-03°)
1.26473634747114e+00	(2.60667560346071e+00dB,-4.27988929365877e-03°)
1.26765186585784e+00	(2.60667560453877e+00dB,-4.28975547444487e-03°)
1.27057410520853e+00	(2.60667560562192e+00dB,-4.29964439249374e-03°)
1.27350308101665e+00	(2.60667560670991e+00dB,-4.30955606816091e-03°)
1.27643880881134e+00	(2.60667560780302e+00dB,-4.31949066429140e-03°)
1.27938130415752e+00	(2.60667560890109e+00dB,-4.32944811981857e-03°)
1.28233058265601e+00	(2.60667561000427e+00dB,-4.33942851616466e-03°)
1.28528665994361e+00	(2.60667561111259e+00dB,-4.34943193475269e-03°)
1.28824955169313e+00	(2.60667561222587e+00dB,-4.35945839593810e-03°)
1.29121927361353e+00	(2.60667561334445e+00dB,-4.36950802185453e-03°)
1.29419584144998e+00	(2.60667561446819e+00dB,-4.37958077179110e-03°)
1.29717927098395e+00	(2.60667561559697e+00dB,-4.38967672717043e-03°)
1.30016957803328e+00	(2.60667561673115e+00dB,-4.39979598977025e-03°)
1.30316677845229e+00	(2.60667561787038e+00dB,-4.40993855959116e-03°)
1.30617088813183e+00	(2.60667561901495e+00dB,-4.42010449769973e-03°)
1.30918192299940e+00	(2.60667562016482e+00dB,-4.43029390587438e-03°)
1.31219989901919e+00	(2.60667562131999e+00dB,-4.44050680447054e-03°)
1.31522483219223e+00	(2.60667562248044e+00dB,-4.45074319348879e-03°)
1.31825673855640e+00	(2.60667562364640e+00dB,-4.46100323577342e-03°)
1.32129563418657e+00	(2.60667562481759e+00dB,-4.47128691096963e-03°)
1.32434153519466e+00	(2.60667562599424e+00dB,-4.48159430049961e-03°)
1.32739445772973e+00	(2.60667562717627e+00dB,-4.49192542471916e-03°)
1.33045441797808e+00	(2.60667562836385e+00dB,-4.50228034469510e-03°)
1.33352143216332e+00	(2.60667562955686e+00dB,-4.51265922327244e-03°)
1.33659551654643e+00	(2.60667563075544e+00dB,-4.52306199938459e-03°)
1.33967668742593e+00	(2.60667563195944e+00dB,-4.53348871374295e-03°)
1.34276496113785e+00	(2.60667563316906e+00dB,-4.54393946812547e-03°)
1.34586035405594e+00	(2.60667563438425e+00dB,-4.55441436431044e-03°)
1.34896288259164e+00	(2.60667563560511e+00dB,-4.56491336158660e-03°)
1.35207256319427e+00	(2.60667563683150e+00dB,-4.57543660244351e-03°)
1.35518941235103e+00	(2.60667563806360e+00dB,-4.58598404617005e-03°)
1.35831344658714e+00	(2.60667563930144e+00dB,-4.59655585561090e-03°)
1.36144468246594e+00	(2.60667564054484e+00dB,-4.60715196970002e-03°)
1.36458313658891e+00	(2.60667564179413e+00dB,-4.61777255128164e-03°)
1.36772882559584e+00	(2.60667564304918e+00dB,-4.62841764106750e-03°)
1.37088176616484e+00	(2.60667564430994e+00dB,-4.63908721870207e-03°)
1.37404197501251e+00	(2.60667564557655e+00dB,-4.64978144703024e-03°)
1.37720946889394e+00	(2.60667564684902e+00dB,-4.66050030569672e-03°)
1.38038426460287e+00	(2.60667564812736e+00dB,-4.67124387612371e-03°)
1.38356637897177e+00	(2.60667564941165e+00dB,-4.68201219902272e-03°)
1.38675582887188e+00	(2.60667565070181e+00dB,-4.69280535581651e-03°)
1.38995263121334e+00	(2.60667565199789e+00dB,-4.70362336686071e-03°)
1.39315680294529e+00	(2.60667565329999e+00dB,-4.71446635428878e-03°)
1.39636836105593e+00	(2.60667565460811e+00dB,-4.72533433845682e-03°)
1.39958732257261e+00	(2.60667565592221e+00dB,-4.73622733972037e-03°)
1.40281370456195e+00	(2.60667565724243e+00dB,-4.74714548021316e-03°)
1.40604752412990e+00	(2.60667565856880e+00dB,-4.75808878029114e-03°)
1.40928879842186e+00	(2.60667565990123e+00dB,-4.76905732137665e-03°)
1.41253754462274e+00	(2.60667566123982e+00dB,-4.78005112382547e-03°)
1.41579377995707e+00	(2.60667566258458e+00dB,-4.79107024870463e-03°)
1.41905752168908e+00	(2.60667566393546e+00dB,-4.80211481814789e-03°)
1.42232878712281e+00	(2.60667566529276e+00dB,-4.81318487286629e-03°)
1.42560759360218e+00	(2.60667566665618e+00dB,-4.82428039250488e-03°)
1.42889395851109e+00	(2.60667566802607e+00dB,-4.83540151955241e-03°)
1.43218789927353e+00	(2.60667566940204e+00dB,-4.84654825400981e-03°)
1.43548943335364e+00	(2.60667567078452e+00dB,-4.85772069765437e-03°)
1.43879857825583e+00	(2.60667567217332e+00dB,-4.86891891155370e-03°)
1.44211535152486e+00	(2.60667567356858e+00dB,-4.88014291606311e-03°)
1.44543977074592e+00	(2.60667567497022e+00dB,-4.89139281296109e-03°)
1.44877185354475e+00	(2.60667567637839e+00dB,-4.90266866331434e-03°)
1.45211161758773e+00	(2.60667567779308e+00dB,-4.91397048747858e-03°)
1.45545908058195e+00	(2.60667567921415e+00dB,-4.92529832616543e-03°)
1.45881426027534e+00	(2.60667568064186e+00dB,-4.93665230150838e-03°)
1.46217717445671e+00	(2.60667568207625e+00dB,-4.94803249493006e-03°)
1.46554784095590e+00	(2.60667568351710e+00dB,-4.95943884536406e-03°)
1.46892627764385e+00	(2.60667568496476e+00dB,-4.97087157672160e-03°)
1.47231250243271e+00	(2.60667568641906e+00dB,-4.98233060758077e-03°)
1.47570653327588e+00	(2.60667568788000e+00dB,-4.99381606007544e-03°)
1.47910838816819e+00	(2.60667568934775e+00dB,-5.00532801562789e-03°)
1.48251808514594e+00	(2.60667569082223e+00dB,-5.01686647423854e-03°)
1.48593564228699e+00	(2.60667569230354e+00dB,-5.02843153768518e-03°)
1.48936107771090e+00	(2.60667569379172e+00dB,-5.04002330774625e-03°)
1.49279440957898e+00	(2.60667569528673e+00dB,-5.05164174371062e-03°)
1.49623565609442e+00	(2.60667569678865e+00dB,-5.06328698806765e-03°)
1.49968483550236e+00	(2.60667569829748e+00dB,-5.07495906117306e-03°)
1.50314196609001e+00	(2.60667569981331e+00dB,-5.08665806480504e-03°)
1.50660706618673e+00	(2.60667570133610e+00dB,-5.09838399896383e-03°)
1.51008015416413e+00	(2.60667570286594e+00dB,-5.11013700613852e-03°)
1.51356124843619e+00	(2.60667570440287e+00dB,-5.12191708632949e-03°)
1.51705036745932e+00	(2.60667570594684e+00dB,-5.13372434131485e-03°)
1.52054752973248e+00	(2.60667570749794e+00dB,-5.14555877109483e-03°)
1.52405275379728e+00	(2.60667570905620e+00dB,-5.15742051815865e-03°)
1.52756605823806e+00	(2.60667571062167e+00dB,-5.16930960286199e-03°)
1.53108746168201e+00	(2.60667571219442e+00dB,-5.18122608627190e-03°)
1.53461698279928e+00	(2.60667571377439e+00dB,-5.19317007016676e-03°)
1.53815464030302e+00	(2.60667571536164e+00dB,-5.20514155454630e-03°)
1.54170045294954e+00	(2.60667571695622e+00dB,-5.21714064118897e-03°)
1.54525443953840e+00	(2.60667571855811e+00dB,-5.22916737080621e-03°)
1.54881661891247e+00	(2.60667572016744e+00dB,-5.24122184517594e-03°)
1.55238700995807e+00	(2.60667572178425e+00dB,-5.25330412536510e-03°)
1.55596563160506e+00	(2.60667572340841e+00dB,-5.26541425208539e-03°)
1.55955250282694e+00	(2.60667572504015e+00dB,-5.27755226604771e-03°)
1.56314764264094e+00	(2.60667572667943e+00dB,-5.28971830974167e-03°)
1.56675107010813e+00	(2.60667572832623e+00dB,-5.30191236281187e-03°)
1.57036280433354e+00	(2.60667572998067e+00dB,-5.31413452703631e-03°)
1.57398286446620e+00	(2.60667573164271e+00dB,-5.32638486348219e-03°)
1.57761126969933e+00	(2.60667573331243e+00dB,-5.33866347392727e-03°)
1.58124803927037e+00	(2.60667573498989e+00dB,-5.35097035837217e-03°)
1.58489319246110e+00	(2.60667573667508e+00dB,-5.36330561859469e-03°)
1.58854674859776e+00	(2.60667573836803e+00dB,-5.37566929530644e-03°)
1.59220872705115e+00	(2.60667574006878e+00dB,-5.38806151064119e-03°)
1.59587914723672e+00	(2.60667574177743e+00dB,-5.40048228495434e-03°)
1.59955802861465e+00	(2.60667574349389e+00dB,-5.41293165895760e-03°)
1.60324539069002e+00	(2.60667574521834e+00dB,-5.42540977514031e-03°)
1.60694125301286e+00	(2.60667574695074e+00dB,-5.43791663350249e-03°)
1.61064563517825e+00	(2.60667574869110e+00dB,-5.45045233582249e-03°)
1.61435855682647e+00	(2.60667575043957e+00dB,-5.46301690245572e-03°)
1.61808003764305e+00	(2.60667575219604e+00dB,-5.47561047589192e-03°)
1.62181009735891e+00	(2.60667575396064e+00dB,-5.48823303577559e-03°)
1.62554875575047e+00	(2.60667575573339e+00dB,-5.50088474495152e-03°)
1.62929603263970e+00	(2.60667575751431e+00dB,-5.51356558306435e-03°)
1.63305194789432e+00	(2.60667575930348e+00dB,-5.52627569260353e-03°)
1.63681652142779e+00	(2.60667576110087e+00dB,-5.53901505321366e-03°)
1.64058977319952e+00	(2.60667576290652e+00dB,-5.55178380738390e-03°)
1.64437172321491e+00	(2.60667576472058e+00dB,-5.56458199582571e-03°)
1.64816239152549e+00	(2.60667576654301e+00dB,-5.57740967960606e-03°)
1.65196179822900e+00	(2.60667576837384e+00dB,-5.59026694014756e-03°)
1.65576996346951e+00	(2.60667577021306e+00dB,-5.60315383851721e-03°)
1.65958690743754e+00	(2.60667577206085e+00dB,-5.61607045613739e-03°)
1.66341265037015e+00	(2.60667577391714e+00dB,-5.62901681336408e-03°)
1.66724721255104e+00	(2.60667577578195e+00dB,-5.64199303233106e-03°)
1.67109061431069e+00	(2.60667577765547e+00dB,-5.65499919446060e-03°)
1.67494287602642e+00	(2.60667577953756e+00dB,-5.66803529975321e-03°)
1.67880401812254e+00	(2.60667578142841e+00dB,-5.68110149069800e-03°)
1.68267406107045e+00	(2.60667578332787e+00dB,-5.69419776729544e-03°)
1.68655302538872e+00	(2.60667578523619e+00dB,-5.70732425167898e-03°)
1.69044093164324e+00	(2.60667578715330e+00dB,-5.72048100491576e-03°)
1.69433780044731e+00	(2.60667578907923e+00dB,-5.73366806771719e-03°)
1.69824365246172e+00	(2.60667579101410e+00dB,-5.74688554186125e-03°)
1.70215850839493e+00	(2.60667579295790e+00dB,-5.76013348841514e-03°)
1.70608238900310e+00	(2.60667579491057e+00dB,-5.77341194809011e-03°)
1.71001531509027e+00	(2.60667579687236e+00dB,-5.78672104301987e-03°)
1.71395730750840e+00	(2.60667579884320e+00dB,-5.80006081391594e-03°)
1.71790838715757e+00	(2.60667580082313e+00dB,-5.81343134220082e-03°)
1.72186857498599e+00	(2.60667580281219e+00dB,-5.82683268894152e-03°)
1.72583789199018e+00	(2.60667580481039e+00dB,-5.84026493556055e-03°)
1.72981635921508e+00	(2.60667580681785e+00dB,-5.85372816348053e-03°)
1.73380399775412e+00	(2.60667580883458e+00dB,-5.86722239305717e-03°)
1.73780082874935e+00	(2.60667581086053e+00dB,-5.88074770571323e-03°)
1.74180687339159e+00	(2.60667581289597e+00dB,-5.89430424393798e-03°)
1.74582215292048e+00	(2.60667581494077e+00dB,-5.90789202808694e-03°)
1.74984668862463e+00	(2.60667581699496e+00dB,-5.92151109887181e-03°)
1.75388050184174e+00	(2.60667581905866e+00dB,-5.93516161913752e-03°)
1.75792361395867e+00	(2.60667582113183e+00dB,-5.94884356852867e-03°)
1.76197604641161e+00	(2.60667582321470e+00dB,-5.96255706917885e-03°)
1.76603782068614e+00	(2.60667582530706e+00dB,-5.97630218215525e-03°)
1.77010895831740e+00	(2.60667582740908e+00dB,-5.99007898888033e-03°)
1.77418948089014e+00	(2.60667582952094e+00dB,-6.00388757077649e-03°)
1.77827941003890e+00	(2.60667583164241e+00dB,-6.01772792784432e-03°)
1.78237876744807e+00	(2.60667583377371e+00dB,-6.03160022292854e-03°)
1.78648757485203e+00	(2.60667583591486e+00dB,-6.04550451709616e-03°)
1.79060585403527e+00	(2.60667583806586e+00dB,-6.05944081034755e-03°)
1.79473362683250e+00	(2.60667584022685e+00dB,-6.07340930623855e-03°)
1.79887091512876e+00	(2.60667584239778e+00dB,-6.08740996405830e-03°)
1.80301774085954e+00	(2.60667584457871e+00dB,-6.10144288558495e-03°)
1.80717412601090e+00	(2.60667584676973e+00dB,-6.11550819295251e-03°)
1.81134009261958e+00	(2.60667584897086e+00dB,-6.12960584544966e-03°)
1.81551566277311e+00	(2.60667585118217e+00dB,-6.14373608734381e-03°)
1.81970085860996e+00	(2.60667585340365e+00dB,-6.15789885756864e-03°)
1.82389570231961e+00	(2.60667585563543e+00dB,-6.17209425790187e-03°)
1.82810021614272e+00	(2.60667585787746e+00dB,-6.18632243083336e-03°)
1.83231442237119e+00	(2.60667586012986e+00dB,-6.20058337636305e-03°)
1.83653834334832e+00	(2.60667586239269e+00dB,-6.21487721662454e-03°)
1.84077200146893e+00	(2.60667586466588e+00dB,-6.22920395161845e-03°)
1.84501541917945e+00	(2.60667586694962e+00dB,-6.24356376454509e-03°)
1.84926861897805e+00	(2.60667586924387e+00dB,-6.25795665540462e-03°)
1.85353162341478e+00	(2.60667587154874e+00dB,-6.27238274633094e-03°)
1.85780445509167e+00	(2.60667587386430e+00dB,-6.28684209839093e-03°)
1.86208713666284e+00	(2.60667587619049e+00dB,-6.30133475229600e-03°)
1.86637969083464e+00	(2.60667587852743e+00dB,-6.31586083018006e-03°)
1.87068214036577e+00	(2.60667588087512e+00dB,-6.33042037275450e-03°)
1.87499450806739e+00	(2.60667588323368e+00dB,-6.34501354286414e-03°)
1.87931681680324e+00	(2.60667588560312e+00dB,-6.35964029979796e-03°)
1.88364908948977e+00	(2.60667588798353e+00dB,-6.37430080640104e-03°)
1.88799134909627e+00	(2.60667589037482e+00dB,-6.38899504231816e-03°)
1.89234361864495e+00	(2.60667589277725e+00dB,-6.40372321110523e-03°)
1.89670592121112e+00	(2.60667589519079e+00dB,-6.41848533311795e-03°)
1.90107827992327e+00	(2.60667589761536e+00dB,-6.43328146942383e-03°)
1.90546071796322e+00	(2.60667590005120e+00dB,-6.44811170144475e-03°)
1.90985325856621e+00	(2.60667590249830e+00dB,-6.46297617167065e-03°)
1.91425592502106e+00	(2.60667590495666e+00dB,-6.47787485974587e-03°)
1.91866874067026e+00	(2.60667590742635e+00dB,-6.49280790816003e-03°)
1.92309172891013e+00	(2.60667590990746e+00dB,-6.50777537797982e-03°)
