Freq.	V(n002)
1.00000000000000e+00	(1.39793999324130e+01dB,-1.07999998720899e-02°)
1.02329299228075e+00	(1.39793999251408e+01dB,-1.10515641795740e-02°)
1.04712854805090e+00	(1.39793999175258e+01dB,-1.13089881720893e-02°)
1.07151930523761e+00	(1.39793999095519e+01dB,-1.15724083392024e-02°)
1.09647819614318e+00	(1.39793999012022e+01dB,-1.18419643497281e-02°)
1.12201845430196e+00	(1.39793998924590e+01dB,-1.21177991257834e-02°)
1.14815362149688e+00	(1.39793998833037e+01dB,-1.24000589185666e-02°)
1.17489755493953e+00	(1.39793998737170e+01dB,-1.26888933859011e-02°)
1.20226443461741e+00	(1.39793998636784e+01dB,-1.29844556715858e-02°)
1.23026877081238e+00	(1.39793998531668e+01dB,-1.32869024865940e-02°)
1.25892541179417e+00	(1.39793998421597e+01dB,-1.35963941921629e-02°)
1.28824955169313e+00	(1.39793998306340e+01dB,-1.39130948848190e-02°)
1.31825673855641e+00	(1.39793998185650e+01dB,-1.42371724833842e-02°)
1.34896288259165e+00	(1.39793998059272e+01dB,-1.45687988180079e-02°)
1.38038426460288e+00	(1.39793997926938e+01dB,-1.49081497212734e-02°)
1.41253754462275e+00	(1.39793997788368e+01dB,-1.52554051214262e-02°)
1.44543977074593e+00	(1.39793997643267e+01dB,-1.56107491377738e-02°)
1.47910838816821e+00	(1.39793997491327e+01dB,-1.59743701783078e-02°)
1.51356124843621e+00	(1.39793997332227e+01dB,-1.63464610395997e-02°)
1.54881661891248e+00	(1.39793997165629e+01dB,-1.67272190090238e-02°)
1.58489319246111e+00	(1.39793996991179e+01dB,-1.71168459693609e-02°)
1.62181009735893e+00	(1.39793996808508e+01dB,-1.75155485058383e-02°)
1.65958690743756e+00	(1.39793996617227e+01dB,-1.79235380156638e-02°)
1.69824365246174e+00	(1.39793996416932e+01dB,-1.83410308201104e-02°)
1.73780082874937e+00	(1.39793996207197e+01dB,-1.87682482792117e-02°)
1.77827941003892e+00	(1.39793995987578e+01dB,-1.92054169091292e-02°)
1.81970085860998e+00	(1.39793995757608e+01dB,-1.96527685022535e-02°)
1.86208713666287e+00	(1.39793995516800e+01dB,-2.01105402501022e-02°)
1.90546071796325e+00	(1.39793995264644e+01dB,-2.05789748690816e-02°)
1.94984459975804e+00	(1.39793995000603e+01dB,-2.10583207291765e-02°)
1.99526231496888e+00	(1.39793994724119e+01dB,-2.15488319856381e-02°)
2.04173794466953e+00	(1.39793994434604e+01dB,-2.20507687137397e-02°)
2.08929613085404e+00	(1.39793994131445e+01dB,-2.25643970466700e-02°)
2.13796208950223e+00	(1.39793993813999e+01dB,-2.30899893166394e-02°)
2.18776162394955e+00	(1.39793993481591e+01dB,-2.36278241992724e-02°)
2.23872113856834e+00	(1.39793993133518e+01dB,-2.41781868613636e-02°)
2.29086765276777e+00	(1.39793992769041e+01dB,-2.47413691120748e-02°)
2.34422881531992e+00	(1.39793992387386e+01dB,-2.53176695576544e-02°)
2.39883291901949e+00	(1.39793991987745e+01dB,-2.59073937597602e-02°)
2.45470891568503e+00	(1.39793991569269e+01dB,-2.65108543974699e-02°)
2.51188643150958e+00	(1.39793991131071e+01dB,-2.71283714330657e-02°)
2.57039578276886e+00	(1.39793990672221e+01dB,-2.77602722816793e-02°)
2.63026799189538e+00	(1.39793990191746e+01dB,-2.84068919848897e-02°)
2.69153480392691e+00	(1.39793989688627e+01dB,-2.90685733883634e-02°)
2.75422870333816e+00	(1.39793989161797e+01dB,-2.97456673236324e-02°)
2.81838293126445e+00	(1.39793988610139e+01dB,-3.04385327941067e-02°)
2.88403150312660e+00	(1.39793988032481e+01dB,-3.11475371654189e-02°)
2.95120922666638e+00	(1.39793987427599e+01dB,-3.18730563602024e-02°)
3.01995172040201e+00	(1.39793986794210e+01dB,-3.26154750574065e-02°)
3.09029543251359e+00	(1.39793986130971e+01dB,-3.33751868962536e-02°)
3.16227766016837e+00	(1.39793985436473e+01dB,-3.41525946849476e-02°)
3.23593656929628e+00	(1.39793984709246e+01dB,-3.49481106142427e-02°)
3.31131121482591e+00	(1.39793983947745e+01dB,-3.57621564759868e-02°)
3.38844156139202e+00	(1.39793983150355e+01dB,-3.65951638867557e-02°)
3.46736850452531e+00	(1.39793982315386e+01dB,-3.74475745166954e-02°)
3.54813389233575e+00	(1.39793981441066e+01dB,-3.83198403236945e-02°)
3.63078054770101e+00	(1.39793980525541e+01dB,-3.92124237930116e-02°)
3.71535229097172e+00	(1.39793979566868e+01dB,-4.01257981824828e-02°)
3.80189396320561e+00	(1.39793978563014e+01dB,-4.10604477734414e-02°)
3.89045144994280e+00	(1.39793977511851e+01dB,-4.20168681274812e-02°)
3.98107170553497e+00	(1.39793976411147e+01dB,-4.29955663492004e-02°)
4.07380277804112e+00	(1.39793975258569e+01dB,-4.39970613550649e-02°)
4.16869383470335e+00	(1.39793974051671e+01dB,-4.50218841485339e-02°)
4.26579518801592e+00	(1.39793972787895e+01dB,-4.60705781015932e-02°)
4.36515832240165e+00	(1.39793971464558e+01dB,-4.71436992428457e-02°)
4.46683592150962e+00	(1.39793970078855e+01dB,-4.82418165523115e-02°)
4.57088189614874e+00	(1.39793968627845e+01dB,-4.93655122630947e-02°)
4.67735141287197e+00	(1.39793967108451e+01dB,-5.05153821700753e-02°)
4.78630092322637e+00	(1.39793965517451e+01dB,-5.16920359457911e-02°)
4.89778819368445e+00	(1.39793963851469e+01dB,-5.28960974636766e-02°)
5.01187233627271e+00	(1.39793962106972e+01dB,-5.41282051288298e-02°)
5.12861383991364e+00	(1.39793960280260e+01dB,-5.53890122164829e-02°)
5.24807460249771e+00	(1.39793958367457e+01dB,-5.66791872183555e-02°)
5.37031796370252e+00	(1.39793956364506e+01dB,-5.79994141970747e-02°)
5.49540873857623e+00	(1.39793954267160e+01dB,-5.93503931488487e-02°)
5.62341325190348e+00	(1.39793952070969e+01dB,-6.07328403745880e-02°)
5.75439937337156e+00	(1.39793949771275e+01dB,-6.21474888596681e-02°)
5.88843655355588e+00	(1.39793947363199e+01dB,-6.35950886625378e-02°)
6.02559586074356e+00	(1.39793944841635e+01dB,-6.50764073123772e-02°)
6.16595001861481e+00	(1.39793942201233e+01dB,-6.65922302160163e-02°)
6.30957344480192e+00	(1.39793939436393e+01dB,-6.81433610743303e-02°)
6.45654229034654e+00	(1.39793936541250e+01dB,-6.97306223083319e-02°)
6.60693448007594e+00	(1.39793933509663e+01dB,-7.13548554951865e-02°)
6.76082975391980e+00	(1.39793930335203e+01dB,-7.30169218143809e-02°)
6.91830970918935e+00	(1.39793927011135e+01dB,-7.47177025042822e-02°)
7.07945784384136e+00	(1.39793923530409e+01dB,-7.64580993293286e-02°)
7.24435960074988e+00	(1.39793919885641e+01dB,-7.82390350580997e-02°)
7.41310241300915e+00	(1.39793916069101e+01dB,-8.00614539525188e-02°)
7.58577575029182e+00	(1.39793912072694e+01dB,-8.19263222684481e-02°)
7.76247116628690e+00	(1.39793907887942e+01dB,-8.38346287679392e-02°)
7.94328234724279e+00	(1.39793903505970e+01dB,-8.57873852434127e-02°)
8.12830516164097e+00	(1.39793898917481e+01dB,-8.77856270540429e-02°)
8.31763771102669e+00	(1.39793894112745e+01dB,-8.98304136746323e-02°)
8.51138038202374e+00	(1.39793889081569e+01dB,-9.19228292572665e-02°)
8.70963589956078e+00	(1.39793883813281e+01dB,-9.40639832060459e-02°)
8.91250938133743e+00	(1.39793878296707e+01dB,-9.62550107652006e-02°)
9.12010839355907e+00	(1.39793872520146e+01dB,-9.84970736208970e-02°)
9.33254300796988e+00	(1.39793866471345e+01dB,-1.00791360517057e-01°)
9.54992586021433e+00	(1.39793860137474e+01dB,-1.03139087885515e-01°)
9.77237220955808e+00	(1.39793853505097e+01dB,-1.05541500490845e-01°)
9.99999999999997e+00	(1.39793846560148e+01dB,-1.07999872090199e-01°)
1.02329299228075e+01	(1.39793839287894e+01dB,-1.10515506108514e-01°)
1.04712854805090e+01	(1.39793831672910e+01dB,-1.13089736329426e-01°)
1.07151930523760e+01	(1.39793823699045e+01dB,-1.15723927602278e-01°)
1.09647819614318e+01	(1.39793815349385e+01dB,-1.18419476565580e-01°)
1.12201845430196e+01	(1.39793806606219e+01dB,-1.21177812387316e-01°)
1.14815362149688e+01	(1.39793797451002e+01dB,-1.24000397522477e-01°)
1.17489755493953e+01	(1.39793787864315e+01dB,-1.26888728488231e-01°)
1.20226443461741e+01	(1.39793777825824e+01dB,-1.29844336657134e-01°)
1.23026877081238e+01	(1.39793767314236e+01dB,-1.32868789068804e-01°)
1.25892541179416e+01	(1.39793756307255e+01dB,-1.35963689260483e-01°)
1.28824955169313e+01	(1.39793744781534e+01dB,-1.39130678116939e-01°)
1.31825673855640e+01	(1.39793732712625e+01dB,-1.42371434740128e-01°)
1.34896288259165e+01	(1.39793720074930e+01dB,-1.45687677339119e-01°)
1.38038426460288e+01	(1.39793706841643e+01dB,-1.49081164140707e-01°)
1.41253754462275e+01	(1.39793692984694e+01dB,-1.52553694321224e-01°)
1.44543977074592e+01	(1.39793678474692e+01dB,-1.56107108960035e-01°)
1.47910838816820e+01	(1.39793663280860e+01dB,-1.59743292015213e-01°)
1.51356124843620e+01	(1.39793647370971e+01dB,-1.63464171321917e-01°)
1.54881661891248e+01	(1.39793630711278e+01dB,-1.67271719613995e-01°)
1.58489319246111e+01	(1.39793613266444e+01dB,-1.71167955569354e-01°)
1.62181009735892e+01	(1.39793594999469e+01dB,-1.75154944879649e-01°)
1.65958690743755e+01	(1.39793575871605e+01dB,-1.79234801344852e-01°)
1.69824365246174e+01	(1.39793555842282e+01dB,-1.83409687993274e-01°)
1.73780082874937e+01	(1.39793534869016e+01dB,-1.87681818227648e-01°)
1.77827941003892e+01	(1.39793512907322e+01dB,-1.92053456997852e-01°)
1.81970085860998e+01	(1.39793489910616e+01dB,-1.96526922000912e-01°)
1.86208713666286e+01	(1.39793465830122e+01dB,-2.01104584908898e-01°)
1.90546071796324e+01	(1.39793440614764e+01dB,-2.05788872625379e-01°)
1.94984459975804e+01	(1.39793414211059e+01dB,-2.10582268571082e-01°)
1.99526231496887e+01	(1.39793386563002e+01dB,-2.15487313999436e-01°)
2.04173794466952e+01	(1.39793357611951e+01dB,-2.20506609342697e-01°)
2.08929613085403e+01	(1.39793327296500e+01dB,-2.25642815589360e-01°)
2.13796208950222e+01	(1.39793295552349e+01dB,-2.30898655693577e-01°)
2.18776162394954e+01	(1.39793262312166e+01dB,-2.36276916017326e-01°)
2.23872113856833e+01	(1.39793227505450e+01dB,-2.41780447806089e-01°)
2.29086765276776e+01	(1.39793191058373e+01dB,-2.47412168698807e-01°)
2.34422881531991e+01	(1.39793152893631e+01dB,-2.53175064272912e-01°)
2.39883291901948e+01	(1.39793112930276e+01dB,-2.59072189625242e-01°)
2.45470891568502e+01	(1.39793071083546e+01dB,-2.65106670989665e-01°)
2.51188643150957e+01	(1.39793027264684e+01dB,-2.71281707392261e-01°)
2.57039578276885e+01	(1.39792981380749e+01dB,-2.77600572344935e-01°)
2.63026799189537e+01	(1.39792933334423e+01dB,-2.84066615578331e-01°)
2.69153480392690e+01	(1.39792883023801e+01dB,-2.90683264814971e-01°)
2.75422870333815e+01	(1.39792830342174e+01dB,-2.97454027583530e-01°)
2.81838293126444e+01	(1.39792775177807e+01dB,-3.04382493075206e-01°)
2.88403150312659e+01	(1.39792717413699e+01dB,-3.11472334043139e-01°)
2.95120922666637e+01	(1.39792656927335e+01dB,-3.18727308745890e-01°)
3.01995172040200e+01	(1.39792593590426e+01dB,-3.26151262935963e-01°)
3.09029543251358e+01	(1.39792527268640e+01dB,-3.33748131894439e-01°)
3.16227766016836e+01	(1.39792457821313e+01dB,-3.41521942512746e-01°)
3.23593656929627e+01	(1.39792385101154e+01dB,-3.49476815422670e-01°)
3.31131121482590e+01	(1.39792308953929e+01dB,-3.57616967175700e-01°)
3.38844156139201e+01	(1.39792229218139e+01dB,-3.65946712472846e-01°)
3.46736850452530e+01	(1.39792145724675e+01dB,-3.74470466446065e-01°)
3.54813389233574e+01	(1.39792058296456e+01dB,-3.83192746992506e-01°)
3.63078054770100e+01	(1.39791966748061e+01dB,-3.92118177162747e-01°)
3.71535229097171e+01	(1.39791870885330e+01dB,-4.01251487604274e-01°)
3.80189396320559e+01	(1.39791770504955e+01dB,-4.10597519061465e-01°)
3.89045144994279e+01	(1.39791665394047e+01dB,-4.20161224933344e-01°)
3.98107170553495e+01	(1.39791555329687e+01dB,-4.29947673890445e-01°)
4.07380277804111e+01	(1.39791440078452e+01dB,-4.39962052552106e-01°)
4.16869383470333e+01	(1.39791319395922e+01dB,-4.50209668225576e-01°)
4.26579518801590e+01	(1.39791193026159e+01dB,-4.60695951708337e-01°)
4.36515832240164e+01	(1.39791060701167e+01dB,-4.71426460155059e-01°)
4.46683592150961e+01	(1.39790922140322e+01dB,-4.82406880010661e-01°)
4.57088189614873e+01	(1.39790777049779e+01dB,-4.93643030010965e-01°)
4.67735141287196e+01	(1.39790625121850e+01dB,-5.05140864252461e-01°)
4.78630092322636e+01	(1.39790466034347e+01dB,-5.16906475332741e-01°)
4.89778819368444e+01	(1.39790299449906e+01dB,-5.28946097563191e-01°)
5.01187233627270e+01	(1.39790125015267e+01dB,-5.41266110255559e-01°)
5.12861383991362e+01	(1.39789942360527e+01dB,-5.53873041084039e-01°)
5.24807460249770e+01	(1.39789751098358e+01dB,-5.66773569524582e-01°)
5.37031796370250e+01	(1.39789550823184e+01dB,-5.79974530373127e-01°)
5.49540873857622e+01	(1.39789341110321e+01dB,-5.93482917344525e-01°)
5.62341325190346e+01	(1.39789121515081e+01dB,-6.07305886753938e-01°)
5.75439937337154e+01	(1.39788891571827e+01dB,-6.21450761282535e-01°)
5.88843655355586e+01	(1.39788650792985e+01dB,-6.35925033829349e-01°)
6.02559586074354e+01	(1.39788398668017e+01dB,-6.50736371451191e-01°)
6.16595001861479e+01	(1.39788134662334e+01dB,-6.65892619392555e-01°)
6.30957344480190e+01	(1.39787858216167e+01dB,-6.81401805207469e-01°)
6.45654229034652e+01	(1.39787568743379e+01dB,-6.97272142975320e-01°)
6.60693448007592e+01	(1.39787265630227e+01dB,-7.13512037612676e-01°)
6.76082975391978e+01	(1.39786948234059e+01dB,-7.30130089283193e-01°)
6.91830970918933e+01	(1.39786615881958e+01dB,-7.47135097907724e-01°)
7.07945784384134e+01	(1.39786267869310e+01dB,-7.64536067776784e-01°)
7.24435960074986e+01	(1.39785903458320e+01dB,-7.82342212267552e-01°)
7.41310241300913e+01	(1.39785521876447e+01dB,-8.00562958667661e-01°)
7.58577575029179e+01	(1.39785122314768e+01dB,-8.19207953108020e-01°)
7.76247116628687e+01	(1.39784703926267e+01dB,-8.38287065606977e-01°)
7.94328234724277e+01	(1.39784265824043e+01dB,-8.57810395228176e-01°)
8.12830516164094e+01	(1.39783807079434e+01dB,-8.77788275354464e-01°)
8.31763771102666e+01	(1.39783326720052e+01dB,-8.98231279080270e-01°)
8.51138038202371e+01	(1.39782823727723e+01dB,-9.19150224724907e-01°)
8.70963589956075e+01	(1.39782297036341e+01dB,-9.40556181469270e-01°)
8.91250938133740e+01	(1.39781745529604e+01dB,-9.62460475118459e-01°)
9.12010839355904e+01	(1.39781168038662e+01dB,-9.84874693992860e-01°)
9.33254300796985e+01	(1.39780563339641e+01dB,-1.00781069495027e+00°)
9.54992586021430e+01	(1.39779930151056e+01dB,-1.03128060954172e+00°)
9.77237220955805e+01	(1.39779267131108e+01dB,-1.05529685030351e+00°)
9.99999999999994e+01	(1.39778572874841e+01dB,-1.07987211718835e+00°)
1.02329299228075e+02	(1.39777845911179e+01dB,-1.10501940413803e+00°)
1.04712854805089e+02	(1.39777084699817e+01dB,-1.13075200580060e+00°)
1.07151930523760e+02	(1.39776287627969e+01dB,-1.15708352439457e+00°)
1.09647819614318e+02	(1.39775453006961e+01dB,-1.18402787672310e+00°)
1.12201845430196e+02	(1.39774579068667e+01dB,-1.21159930134080e+00°)
1.14815362149688e+02	(1.39773663961780e+01dB,-1.23981236587603e+00°)
1.17489755493952e+02	(1.39772705747900e+01dB,-1.26868197451144e+00°)
1.20226443461741e+02	(1.39771702397450e+01dB,-1.29822337562565e+00°)
1.23026877081237e+02	(1.39770651785395e+01dB,-1.32845216959874e+00°)
1.25892541179416e+02	(1.39769551686759e+01dB,-1.35938431678456e+00°)
1.28824955169313e+02	(1.39768399771938e+01dB,-1.39103614565244e+00°)
1.31825673855640e+02	(1.39767193601790e+01dB,-1.42342436110137e+00°)
1.34896288259164e+02	(1.39765930622498e+01dB,-1.45656605294913e+00°)
1.38038426460288e+02	(1.39764608160190e+01dB,-1.49047870459939e+00°)
1.41253754462274e+02	(1.39763223415314e+01dB,-1.52518020188936e+00°)
1.44543977074592e+02	(1.39761773456744e+01dB,-1.56068884212070e+00°)
1.47910838816820e+02	(1.39760255215615e+01dB,-1.59702334327647e+00°)
1.51356124843620e+02	(1.39758665478871e+01dB,-1.63420285342647e+00°)
1.54881661891247e+02	(1.39757000882511e+01dB,-1.67224696032379e+00°)
1.58489319246110e+02	(1.39755257904521e+01dB,-1.71117570119477e+00°)
1.62181009735892e+02	(1.39753432857482e+01dB,-1.75100957272496e+00°)
1.65958690743755e+02	(1.39751521880823e+01dB,-1.79176954124329e+00°)
1.69824365246173e+02	(1.39749520932729e+01dB,-1.83347705310653e+00°)
1.73780082874936e+02	(1.39747425781662e+01dB,-1.87615404528625e+00°)
1.77827941003891e+02	(1.39745231997495e+01dB,-1.91982295616019e+00°)
1.81970085860997e+02	(1.39742934942232e+01dB,-1.96450673650965e+00°)
1.86208713666285e+02	(1.39740529760302e+01dB,-2.01022886072472e+00°)
1.90546071796323e+02	(1.39738011368399e+01dB,-2.05701333821858e+00°)
1.94984459975803e+02	(1.39735374444855e+01dB,-2.10488472505226e+00°)
1.99526231496887e+02	(1.39732613418525e+01dB,-2.15386813577062e+00°)
2.04173794466951e+02	(1.39729722457158e+01dB,-2.20398925545052e+00°)
2.08929613085402e+02	(1.39726695455224e+01dB,-2.25527435196145e+00°)
2.13796208950222e+02	(1.39723526021197e+01dB,-2.30775028843885e+00°)
2.18776162394954e+02	(1.39720207464238e+01dB,-2.36144453596994e+00°)
2.23872113856832e+02	(1.39716732780274e+01dB,-2.41638518649148e+00°)
2.29086765276776e+02	(1.39713094637437e+01dB,-2.47260096589863e+00°)
2.34422881531990e+02	(1.39709285360838e+01dB,-2.53012124736334e+00°)
2.39883291901947e+02	(1.39705296916641e+01dB,-2.58897606486071e+00°)
2.45470891568501e+02	(1.39701120895412e+01dB,-2.64919612690069e+00°)
2.51188643150956e+02	(1.39696748494707e+01dB,-2.71081283046251e+00°)
2.57039578276884e+02	(1.39692170500870e+01dB,-2.77385827512814e+00°)
2.63026799189536e+02	(1.39687377270002e+01dB,-2.83836527741074e+00°)
2.69153480392690e+02	(1.39682358708063e+01dB,-2.90436738527325e+00°)
2.75422870333815e+02	(1.39677104250082e+01dB,-2.97189889283156e+00°)
2.81838293126443e+02	(1.39671602838416e+01dB,-3.04099485523583e+00°)
2.88403150312658e+02	(1.39665842900038e+01dB,-3.11169110372262e+00°)
2.95120922666636e+02	(1.39659812322793e+01dB,-3.18402426082971e+00°)
3.01995172040199e+02	(1.39653498430599e+01dB,-3.25803175576428e+00°)
3.09029543251357e+02	(1.39646887957528e+01dB,-3.33375183991410e+00°)
3.16227766016836e+02	(1.39639967020729e+01dB,-3.41122360249021e+00°)
3.23593656929626e+02	(1.39632721092151e+01dB,-3.49048698628826e+00°)
3.31131121482588e+02	(1.39625134969000e+01dB,-3.57158280355431e+00°)
3.38844156139200e+02	(1.39617192742893e+01dB,-3.65455275193955e+00°)
3.46736850452529e+02	(1.39608877767644e+01dB,-3.73943943052653e+00°)
3.54813389233573e+02	(1.39600172625638e+01dB,-3.82628635590821e+00°)
3.63078054770098e+02	(1.39591059092718e+01dB,-3.91513797829898e+00°)
3.71535229097170e+02	(1.39581518101546e+01dB,-4.00603969765502e+00°)
3.80189396320558e+02	(1.39571529703364e+01dB,-4.09903787977936e+00°)
3.89045144994277e+02	(1.39561073028089e+01dB,-4.19417987238464e+00°)
3.98107170553494e+02	(1.39550126242694e+01dB,-4.29151402108432e+00°)
4.07380277804109e+02	(1.39538666507788e+01dB,-4.39108968528058e+00°)
4.16869383470332e+02	(1.39526669932339e+01dB,-4.49295725391431e+00°)
4.26579518801589e+02	(1.39514111526471e+01dB,-4.59716816103993e+00°)
4.36515832240162e+02	(1.39500965152250e+01dB,-4.70377490118459e+00°)
4.46683592150959e+02	(1.39487203472402e+01dB,-4.81283104444805e+00°)
4.57088189614871e+02	(1.39472797896876e+01dB,-4.92439125129617e+00°)
4.67735141287194e+02	(1.39457718527179e+01dB,-5.03851128699720e+00°)
4.78630092322634e+02	(1.39441934098409e+01dB,-5.15524803564612e+00°)
4.89778819368442e+02	(1.39425411918899e+01dB,-5.27465951371821e+00°)
5.01187233627268e+02	(1.39408117807400e+01dB,-5.39680488308865e+00°)
5.12861383991361e+02	(1.39390016027712e+01dB,-5.52174446345015e+00°)
5.24807460249768e+02	(1.39371069220692e+01dB,-5.64953974405595e+00°)
5.37031796370248e+02	(1.39351238333554e+01dB,-5.78025339470994e+00°)
5.49540873857620e+02	(1.39330482546366e+01dB,-5.91394927592063e+00°)
5.62341325190344e+02	(1.39308759195686e+01dB,-6.05069244812938e+00°)
5.75439937337152e+02	(1.39286023695230e+01dB,-6.19054917991770e+00°)
5.88843655355584e+02	(1.39262229453508e+01dB,-6.33358695509148e+00°)
6.02559586074353e+02	(1.39237327788345e+01dB,-6.47987447853371e+00°)
6.16595001861477e+02	(1.39211267838201e+01dB,-6.62948168070976e+00°)
6.30957344480188e+02	(1.39183996470232e+01dB,-6.78247972070215e+00°)
6.45654229034650e+02	(1.39155458184996e+01dB,-6.93894098764365e+00°)
6.60693448007590e+02	(1.39125595017761e+01dB,-7.09893910040969e+00°)
6.76082975391976e+02	(1.39094346436329e+01dB,-7.26254890542229e+00°)
6.91830970918930e+02	(1.39061649235334e+01dB,-7.42984647240903e+00°)
