Freq.	V(n003)
1.00000000000000e+00	(1.39793990065692e+01dB,-3.23999976976190e-02°)
1.02329299228075e+00	(1.39793989556632e+01dB,-3.31546904828508e-02°)
1.04712854805090e+00	(1.39793989023582e+01dB,-3.39269623133621e-02°)
1.07151930523761e+00	(1.39793988465409e+01dB,-3.47172226571511e-02°)
1.09647819614318e+00	(1.39793987880931e+01dB,-3.55258905199100e-02°)
1.12201845430196e+00	(1.39793987268906e+01dB,-3.63533946671842e-02°)
1.14815362149688e+00	(1.39793986628039e+01dB,-3.72001738517045e-02°)
1.17489755493953e+00	(1.39793985956967e+01dB,-3.80666770460162e-02°)
1.20226443461741e+00	(1.39793985254270e+01dB,-3.89533636805248e-02°)
1.23026877081238e+00	(1.39793984518455e+01dB,-3.98607038870875e-02°)
1.25892541179417e+00	(1.39793983747962e+01dB,-4.07891787482774e-02°)
1.28824955169313e+00	(1.39793982941158e+01dB,-4.17392805524547e-02°)
1.31825673855641e+00	(1.39793982096329e+01dB,-4.27115130547780e-02°)
1.34896288259165e+00	(1.39793981211685e+01dB,-4.37063917442951e-02°)
1.38038426460288e+00	(1.39793980285350e+01dB,-4.47244441172552e-02°)
1.41253754462275e+00	(1.39793979315357e+01dB,-4.57662099567869e-02°)
1.44543977074593e+00	(1.39793978299650e+01dB,-4.68322416190897e-02°)
1.47910838816821e+00	(1.39793977236074e+01dB,-4.79231043262924e-02°)
1.51356124843621e+00	(1.39793976122373e+01dB,-4.90393764661313e-02°)
1.54881661891248e+00	(1.39793974956186e+01dB,-5.01816498986097e-02°)
1.58489319246111e+00	(1.39793973735038e+01dB,-5.13505302697983e-02°)
1.62181009735893e+00	(1.39793972456338e+01dB,-5.25466373329459e-02°)
1.65958690743756e+00	(1.39793971117376e+01dB,-5.37706052770681e-02°)
1.69824365246174e+00	(1.39793969715310e+01dB,-5.50230830631892e-02°)
1.73780082874937e+00	(1.39793968247167e+01dB,-5.63047347684161e-02°)
1.77827941003892e+00	(1.39793966709833e+01dB,-5.76162399380254e-02°)
1.81970085860998e+00	(1.39793965100046e+01dB,-5.89582939457508e-02°)
1.86208713666287e+00	(1.39793963414393e+01dB,-6.03316083624620e-02°)
1.90546071796325e+00	(1.39793961649297e+01dB,-6.17369113334306e-02°)
1.94984459975804e+00	(1.39793959801015e+01dB,-6.31749479643816e-02°)
1.99526231496888e+00	(1.39793957865626e+01dB,-6.46464807165374e-02°)
2.04173794466953e+00	(1.39793955839025e+01dB,-6.61522898108614e-02°)
2.08929613085404e+00	(1.39793953716913e+01dB,-6.76931736417170e-02°)
2.13796208950223e+00	(1.39793951494790e+01dB,-6.92699492001601e-02°)
2.18776162394955e+00	(1.39793949167941e+01dB,-7.08834525070902e-02°)
2.23872113856834e+00	(1.39793946731431e+01dB,-7.25345390564897e-02°)
2.29086765276777e+00	(1.39793944180093e+01dB,-7.42240842689852e-02°)
2.34422881531992e+00	(1.39793941508513e+01dB,-7.59529839559722e-02°)
2.39883291901949e+00	(1.39793938711026e+01dB,-7.77221547945487e-02°)
2.45470891568503e+00	(1.39793935781698e+01dB,-7.95325348135096e-02°)
2.51188643150958e+00	(1.39793932714315e+01dB,-8.13850838906591e-02°)
2.57039578276886e+00	(1.39793929502371e+01dB,-8.32807842617042e-02°)
2.63026799189538e+00	(1.39793926139052e+01dB,-8.52206410410000e-02°)
2.69153480392691e+00	(1.39793922617226e+01dB,-8.72056827544216e-02°)
2.75422870333816e+00	(1.39793918929422e+01dB,-8.92369618846459e-02°)
2.81838293126445e+00	(1.39793915067817e+01dB,-9.13155554291307e-02°)
2.88403150312660e+00	(1.39793911024220e+01dB,-9.34425654710879e-02°)
2.95120922666638e+00	(1.39793906790055e+01dB,-9.56191197637537e-02°)
3.01995172040201e+00	(1.39793902356340e+01dB,-9.78463723282624e-02°)
3.09029543251359e+00	(1.39793897713672e+01dB,-1.00125504065445e-01°)
3.16227766016837e+00	(1.39793892852201e+01dB,-1.02457723381871e-01°)
3.23593656929628e+00	(1.39793887761618e+01dB,-1.04844266830473e-01°)
3.31131121482591e+00	(1.39793882431122e+01dB,-1.07286399766080e-01°)
3.38844156139202e+00	(1.39793876849410e+01dB,-1.09785417016224e-01°)
3.46736850452531e+00	(1.39793871004639e+01dB,-1.12342643567560e-01°)
3.54813389233575e+00	(1.39793864884414e+01dB,-1.14959435268271e-01°)
3.63078054770101e+00	(1.39793858475753e+01dB,-1.17637179546826e-01°)
3.71535229097172e+00	(1.39793851765062e+01dB,-1.20377296147474e-01°)
3.80189396320561e+00	(1.39793844738106e+01dB,-1.23181237882864e-01°)
3.89045144994280e+00	(1.39793837379982e+01dB,-1.26050491404183e-01°)
3.98107170553497e+00	(1.39793829675081e+01dB,-1.28986577989228e-01°)
4.07380277804112e+00	(1.39793821607061e+01dB,-1.31991054348828e-01°)
4.16869383470335e+00	(1.39793813158808e+01dB,-1.35065513452029e-01°)
4.26579518801592e+00	(1.39793804312403e+01dB,-1.38211585370504e-01°)
4.36515832240165e+00	(1.39793795049082e+01dB,-1.41430938142609e-01°)
4.46683592150962e+00	(1.39793785349196e+01dB,-1.44725278657558e-01°)
4.57088189614874e+00	(1.39793775192170e+01dB,-1.48096353560180e-01°)
4.67735141287197e+00	(1.39793764556462e+01dB,-1.51545950176736e-01°)
4.78630092322637e+00	(1.39793753419510e+01dB,-1.55075897462286e-01°)
4.89778819368445e+00	(1.39793741757693e+01dB,-1.58688066970104e-01°)
5.01187233627271e+00	(1.39793729546274e+01dB,-1.62384373843662e-01°)
5.12861383991364e+00	(1.39793716759353e+01dB,-1.66166777831698e-01°)
5.24807460249771e+00	(1.39793703369806e+01dB,-1.70037284326909e-01°)
5.37031796370252e+00	(1.39793689349234e+01dB,-1.73997945428815e-01°)
5.49540873857623e+00	(1.39793674667898e+01dB,-1.78050861031362e-01°)
5.62341325190348e+00	(1.39793659294656e+01dB,-1.82198179935830e-01°)
5.75439937337156e+00	(1.39793643196901e+01dB,-1.86442100989639e-01°)
5.88843655355588e+00	(1.39793626340489e+01dB,-1.90784874251655e-01°)
6.02559586074356e+00	(1.39793608689665e+01dB,-1.95228802184607e-01°)
6.16595001861481e+00	(1.39793590206991e+01dB,-1.99776240875247e-01°)
6.30957344480192e+00	(1.39793570853263e+01dB,-2.04429601282898e-01°)
6.45654229034654e+00	(1.39793550587431e+01dB,-2.09191350517047e-01°)
6.60693448007594e+00	(1.39793529366510e+01dB,-2.14064013144659e-01°)
6.76082975391980e+00	(1.39793507145488e+01dB,-2.19050172527893e-01°)
6.91830970918935e+00	(1.39793483877233e+01dB,-2.24152472192944e-01°)
7.07945784384136e+00	(1.39793459512392e+01dB,-2.29373617230707e-01°)
7.24435960074988e+00	(1.39793433999286e+01dB,-2.34716375730026e-01°)
7.41310241300915e+00	(1.39793407283799e+01dB,-2.40183580244266e-01°)
7.58577575029182e+00	(1.39793379309267e+01dB,-2.45778129291984e-01°)
7.76247116628690e+00	(1.39793350016354e+01dB,-2.51502988892499e-01°)
7.94328234724279e+00	(1.39793319342930e+01dB,-2.57361194137151e-01°)
8.12830516164097e+00	(1.39793287223933e+01dB,-2.63355850797094e-01°)
8.31763771102669e+00	(1.39793253591240e+01dB,-2.69490136968458e-01°)
8.51138038202374e+00	(1.39793218373513e+01dB,-2.75767304755740e-01°)
8.70963589956078e+00	(1.39793181496055e+01dB,-2.82190681994329e-01°)
8.91250938133743e+00	(1.39793142880648e+01dB,-2.88763674013048e-01°)
9.12010839355907e+00	(1.39793102445389e+01dB,-2.95489765437641e-01°)
9.33254300796988e+00	(1.39793060104513e+01dB,-3.02372522036176e-01°)
9.54992586021433e+00	(1.39793015768216e+01dB,-3.09415592607290e-01°)
9.77237220955808e+00	(1.39792969342459e+01dB,-3.16622710912310e-01°)
9.99999999999997e+00	(1.39792920728776e+01dB,-3.23997697652224e-01°)
1.02329299228075e+01	(1.39792869824056e+01dB,-3.31544462490568e-01°)
1.04712854805090e+01	(1.39792816520332e+01dB,-3.39267006123269e-01°)
1.07151930523760e+01	(1.39792760704548e+01dB,-3.47169422396529e-01°)
1.09647819614318e+01	(1.39792702258320e+01dB,-3.55255900473864e-01°)
1.12201845430196e+01	(1.39792641057688e+01dB,-3.63530727053428e-01°)
1.14815362149688e+01	(1.39792576972848e+01dB,-3.71998288636771e-01°)
1.17489755493953e+01	(1.39792509867879e+01dB,-3.80663073850227e-01°)
1.20226443461741e+01	(1.39792439600457e+01dB,-3.89529675820130e-01°)
1.23026877081238e+01	(1.39792366021551e+01dB,-3.98602794603107e-01°)
1.25892541179416e+01	(1.39792288975105e+01dB,-4.07887239672697e-01°)
1.28824955169313e+01	(1.39792208297713e+01dB,-4.17387932463609e-01°)
1.31825673855640e+01	(1.39792123818267e+01dB,-4.27109908974918e-01°)
1.34896288259165e+01	(1.39792035357596e+01dB,-4.37058322433567e-01°)
1.38038426460288e+01	(1.39791942728088e+01dB,-4.47238446019549e-01°)
1.41253754462275e+01	(1.39791845733288e+01dB,-4.57655675654175e-01°)
1.44543977074592e+01	(1.39791744167487e+01dB,-4.68315532852882e-01°)
1.47910838816820e+01	(1.39791637815281e+01dB,-4.79223667644041e-01°)
1.51356124843620e+01	(1.39791526451118e+01dB,-4.90385861555281e-01°)
1.54881661891248e+01	(1.39791409838817e+01dB,-5.01808030668863e-01°)
1.58489319246111e+01	(1.39791287731070e+01dB,-5.13496228747677e-01°)
1.62181009735892e+01	(1.39791159868914e+01dB,-5.25456650433466e-01°)
1.65958690743755e+01	(1.39791025981189e+01dB,-5.37695634518922e-01°)
1.69824365246174e+01	(1.39790885783953e+01dB,-5.50219667295324e-01°)
1.73780082874937e+01	(1.39790738979890e+01dB,-5.63035385977438e-01°)
1.77827941003892e+01	(1.39790585257676e+01dB,-5.76149582207415e-01°)
1.81970085860998e+01	(1.39790424291315e+01dB,-5.89569205639486e-01°)
1.86208713666286e+01	(1.39790255739458e+01dB,-6.03301367607262e-01°)
1.90546071796324e+01	(1.39790079244668e+01dB,-6.17353344875520e-01°)
1.94984459975804e+01	(1.39789894432673e+01dB,-6.31732583478348e-01°)
1.99526231496887e+01	(1.39789700911565e+01dB,-6.46446702645616e-01°)
2.04173794466952e+01	(1.39789498270975e+01dB,-6.61503498819729e-01°)
2.08929613085403e+01	(1.39789286081201e+01dB,-6.76910949764704e-01°)
2.13796208950222e+01	(1.39789063892296e+01dB,-6.92677218769604e-01°)
2.18776162394954e+01	(1.39788831233119e+01dB,-7.08810658948464e-01°)
2.23872113856833e+01	(1.39788587610334e+01dB,-7.25319817638830e-01°)
2.29086765276776e+01	(1.39788332507366e+01dB,-7.42213440901099e-01°)
2.34422881531991e+01	(1.39788065383306e+01dB,-7.59500478120911e-01°)
2.39883291901948e+01	(1.39787785671767e+01dB,-7.77190086716845e-01°)
2.45470891568502e+01	(1.39787492779680e+01dB,-7.95291636955738e-01°)
2.51188643150957e+01	(1.39787186086045e+01dB,-8.13814716878014e-01°)
2.57039578276885e+01	(1.39786864940612e+01dB,-8.32769137335396e-01°)
2.63026799189537e+01	(1.39786528662501e+01dB,-8.52164937143479e-01°)
2.69153480392690e+01	(1.39786176538768e+01dB,-8.72012388351644e-01°)
2.75422870333815e+01	(1.39785807822891e+01dB,-8.92322001632871e-01°)
2.81838293126444e+01	(1.39785421733187e+01dB,-9.13104531796026e-01°)
2.88403150312659e+01	(1.39785017451165e+01dB,-9.34370983423264e-01°)
2.95120922666637e+01	(1.39784594119787e+01dB,-9.56132616635227e-01°)
3.01995172040200e+01	(1.39784150841658e+01dB,-9.78400952986756e-01°)
3.09029543251358e+01	(1.39783686677126e+01dB,-1.00118778149590e+00°)
3.16227766016836e+01	(1.39783200642293e+01dB,-1.02450516480903e+00°)
3.23593656929627e+01	(1.39782691706936e+01dB,-1.04836544550490e+00°)
3.31131121482590e+01	(1.39782158792326e+01dB,-1.07278125254066e+00°)
3.38844156139201e+01	(1.39781600768947e+01dB,-1.09776550784256e+00°)
3.46736850452530e+01	(1.39781016454107e+01dB,-1.12333143304460e+00°)
3.54813389233574e+01	(1.39780404609439e+01dB,-1.14949255637798e+00°)
3.63078054770100e+01	(1.39779763938282e+01dB,-1.17626271971447e+00°)
3.71535229097171e+01	(1.39779093082939e+01dB,-1.20365608576690e+00°)
3.80189396320559e+01	(1.39778390621811e+01dB,-1.23168714544974e+00°)
3.89045144994279e+01	(1.39777655066391e+01dB,-1.26037072540324e+00°)
3.98107170553495e+01	(1.39776884858119e+01dB,-1.28972199568407e+00°)
4.07380277804111e+01	(1.39776078365092e+01dB,-1.31975647762601e+00°)
4.16869383470333e+01	(1.39775233878615e+01dB,-1.35049005187369e+00°)
4.26579518801590e+01	(1.39774349609598e+01dB,-1.38193896659301e+00°)
4.36515832240164e+01	(1.39773423684776e+01dB,-1.41411984586139e+00°)
4.46683592150961e+01	(1.39772454142755e+01dB,-1.44704969824129e+00°)
4.57088189614873e+01	(1.39771438929877e+01dB,-1.48074592554045e+00°)
4.67735141287196e+01	(1.39770375895886e+01dB,-1.51522633176222e+00°)
4.78630092322636e+01	(1.39769262789397e+01dB,-1.55050913224944e+00°)
4.89778819368444e+01	(1.39768097253142e+01dB,-1.58661296302525e+00°)
5.01187233627270e+01	(1.39766876819013e+01dB,-1.62355689033443e+00°)
5.12861383991362e+01	(1.39765598902851e+01dB,-1.66136042038858e+00°)
5.24807460249770e+01	(1.39764260799012e+01dB,-1.70004350931859e+00°)
5.37031796370250e+01	(1.39762859674664e+01dB,-1.73962657333795e+00°)
5.49540873857622e+01	(1.39761392563829e+01dB,-1.78013049912018e+00°)
5.62341325190346e+01	(1.39759856361138e+01dB,-1.82157665439385e+00°)
5.75439937337154e+01	(1.39758247815306e+01dB,-1.86398689875851e+00°)
5.88843655355586e+01	(1.39756563522289e+01dB,-1.90738359472484e+00°)
6.02559586074354e+01	(1.39754799918135e+01dB,-1.95178961898225e+00°)
6.16595001861479e+01	(1.39752953271500e+01dB,-1.99722837389725e+00°)
6.30957344480190e+01	(1.39751019675808e+01dB,-2.04372379924552e+00°)
6.45654229034652e+01	(1.39748995041054e+01dB,-2.09130038418082e+00°)
6.60693448007592e+01	(1.39746875085231e+01dB,-2.13998317944376e+00°)
6.76082975391978e+01	(1.39744655325344e+01dB,-2.18979780981301e+00°)
6.91830970918933e+01	(1.39742331068025e+01dB,-2.24077048680192e+00°)
7.07945784384134e+01	(1.39739897399700e+01dB,-2.29292802160289e+00°)
7.24435960074986e+01	(1.39737349176308e+01dB,-2.34629783828198e+00°)
7.41310241300913e+01	(1.39734681012543e+01dB,-2.40090798722597e+00°)
7.58577575029179e+01	(1.39731887270597e+01dB,-2.45678715884377e+00°)
7.76247116628687e+01	(1.39728962048386e+01dB,-2.51396469752409e+00°)
7.94328234724277e+01	(1.39725899167232e+01dB,-2.57247061585082e+00°)
8.12830516164094e+01	(1.39722692158979e+01dB,-2.63233560907734e+00°)
8.31763771102666e+01	(1.39719334252513e+01dB,-2.69359106986086e+00°)
8.51138038202371e+01	(1.39715818359666e+01dB,-2.75626910325723e+00°)
8.70963589956075e+01	(1.39712137060469e+01dB,-2.82040254197657e+00°)
8.91250938133740e+01	(1.39708282587736e+01dB,-2.88602496189963e+00°)
9.12010839355904e+01	(1.39704246810934e+01dB,-2.95317069785415e+00°)
9.33254300796985e+01	(1.39700021219320e+01dB,-3.02187485965035e+00°)
9.54992586021430e+01	(1.39695596904307e+01dB,-3.09217334837386e+00°)
9.77237220955805e+01	(1.39690964541031e+01dB,-3.16410287293399e+00°)
9.99999999999994e+01	(1.39686114369069e+01dB,-3.23770096686470e+00°)
1.02329299228075e+02	(1.39681036172289e+01dB,-3.31300600537470e+00°)
1.04712854805089e+02	(1.39675719257788e+01dB,-3.39005722264273e+00°)
1.07151930523760e+02	(1.39670152433868e+01dB,-3.46889472935305e+00°)
1.09647819614318e+02	(1.39664323987024e+01dB,-3.54955953046544e+00°)
1.12201845430196e+02	(1.39658221657895e+01dB,-3.63209354321308e+00°)
1.14815362149688e+02	(1.39651832616127e+01dB,-3.71653961532067e+00°)
1.17489755493952e+02	(1.39645143434115e+01dB,-3.80294154343424e+00°)
1.20226443461741e+02	(1.39638140059565e+01dB,-3.89134409175264e+00°)
1.23026877081237e+02	(1.39630807786833e+01dB,-3.98179301084998e+00°)
1.25892541179416e+02	(1.39623131226986e+01dB,-4.07433505667638e+00°)
1.28824955169313e+02	(1.39615094276534e+01dB,-4.16901800972355e+00°)
1.31825673855640e+02	(1.39606680084776e+01dB,-4.26589069433977e+00°)
1.34896288259164e+02	(1.39597871019710e+01dB,-4.36500299817740e+00°)
1.38038426460288e+02	(1.39588648632432e+01dB,-4.46640589175433e+00°)
1.41253754462274e+02	(1.39578993619987e+01dB,-4.57015144810886e+00°)
1.44543977074592e+02	(1.39568885786585e+01dB,-4.67629286252537e+00°)
1.47910838816820e+02	(1.39558304003137e+01dB,-4.78488447230630e+00°)
1.51356124843620e+02	(1.39547226165035e+01dB,-4.89598177656329e+00°)
1.54881661891247e+02	(1.39535629148105e+01dB,-5.00964145599823e+00°)
1.58489319246110e+02	(1.39523488762671e+01dB,-5.12592139264208e+00°)
1.62181009735892e+02	(1.39510779705655e+01dB,-5.24488068951668e+00°)
1.65958690743755e+02	(1.39497475510634e+01dB,-5.36657969018170e+00°)
1.69824365246173e+02	(1.39483548495788e+01dB,-5.49107999812590e+00°)
1.73780082874936e+02	(1.39468969709647e+01dB,-5.61844449595805e+00°)
1.77827941003891e+02	(1.39453708874581e+01dB,-5.74873736434990e+00°)
1.81970085860997e+02	(1.39437734327921e+01dB,-5.88202410067922e+00°)
1.86208713666285e+02	(1.39421012960664e+01dB,-6.01837153731703e+00°)
1.90546071796323e+02	(1.39403510153651e+01dB,-6.15784785949917e+00°)
1.94984459975803e+02	(1.39385189711145e+01dB,-6.30052262271715e+00°)
1.99526231496887e+02	(1.39366013791729e+01dB,-6.44646676955907e+00°)
2.04173794466951e+02	(1.39345942836431e+01dB,-6.59575264592573e+00°)
2.08929613085402e+02	(1.39324935493986e+01dB,-6.74845401654206e+00°)
2.13796208950222e+02	(1.39302948543166e+01dB,-6.90464607967805e+00°)
2.18776162394954e+02	(1.39279936812067e+01dB,-7.06440548098733e+00°)
2.23872113856832e+02	(1.39255853094299e+01dB,-7.22781032636555e+00°)
2.29086765276776e+02	(1.39230648061959e+01dB,-7.39494019372344e+00°)
2.34422881531990e+02	(1.39204270175340e+01dB,-7.56587614356309e+00°)
2.39883291901947e+02	(1.39176665589267e+01dB,-7.74070072823816e+00°)
2.45470891568501e+02	(1.39147778056001e+01dB,-7.91949799977127e+00°)
2.51188643150956e+02	(1.39117548824624e+01dB,-8.10235351609361e+00°)
2.57039578276884e+02	(1.39085916536842e+01dB,-8.28935434556363e+00°)
2.63026799189536e+02	(1.39052817119140e+01dB,-8.48058906961265e+00°)
2.69153480392690e+02	(1.39018183671222e+01dB,-8.67614778335635e+00°)
2.75422870333815e+02	(1.38981946350687e+01dB,-8.87612209400142e+00°)
2.81838293126443e+02	(1.38944032253905e+01dB,-9.08060511686715e+00°)
2.88403150312658e+02	(1.38904365293027e+01dB,-9.28969146883120e+00°)
2.95120922666636e+02	(1.38862866069140e+01dB,-9.50347725899898e+00°)
3.01995172040199e+02	(1.38819451741516e+01dB,-9.72206007638472e+00°)
3.09029543251357e+02	(1.38774035892978e+01dB,-9.94553897438181e+00°)
3.16227766016836e+02	(1.38726528391374e+01dB,-1.01740144517888e+01°)
3.23593656929626e+02	(1.38676835247204e+01dB,-1.04075884301457e+01°)
3.31131121482588e+02	(1.38624858467424e+01dB,-1.06463642271249e+01°)
3.38844156139200e+02	(1.38570495905517e+01dB,-1.08904465257071e+01°)
3.46736850452529e+02	(1.38513641107886e+01dB,-1.11399413388651e+01°)
3.54813389233573e+02	(1.38454183156711e+01dB,-1.13949559694622e+01°)
3.63078054770098e+02	(1.38392006509380e+01dB,-1.16555989650650e+01°)
3.71535229097170e+02	(1.38326990834672e+01dB,-1.19219800673558e+01°)
3.80189396320558e+02	(1.38259010845887e+01dB,-1.21942101558234e+01°)
3.89045144994277e+02	(1.38187936131145e+01dB,-1.24724011853955e+01°)
3.98107170553494e+02	(1.38113630981134e+01dB,-1.27566661176734e+01°)
4.07380277804109e+02	(1.38035954214601e+01dB,-1.30471188454144e+01°)
4.16869383470332e+02	(1.37954759001936e+01dB,-1.33438741099062e+01°)
4.26579518801589e+02	(1.37869892687258e+01dB,-1.36470474108657e+01°)
4.36515832240162e+02	(1.37781196609431e+01dB,-1.39567549084952e+01°)
4.46683592150959e+02	(1.37688505922513e+01dB,-1.42731133173213e+01°)
4.57088189614871e+02	(1.37591649416199e+01dB,-1.45962397914445e+01°)
4.67735141287194e+02	(1.37490449336859e+01dB,-1.49262518008269e+01°)
4.78630092322634e+02	(1.37384721209848e+01dB,-1.52632669982495e+01°)
4.89778819368442e+02	(1.37274273663845e+01dB,-1.56074030765770e+01°)
5.01187233627268e+02	(1.37158908258004e+01dB,-1.59587776159800e+01°)
5.12861383991361e+02	(1.37038419312827e+01dB,-1.63175079207751e+01°)
5.24807460249768e+02	(1.36912593745702e+01dB,-1.66837108455628e+01°)
5.37031796370248e+02	(1.36781210912139e+01dB,-1.70575026103664e+01°)
5.49540873857620e+02	(1.36644042453837e+01dB,-1.74389986044982e+01°)
5.62341325190344e+02	(1.36500852154754e+01dB,-1.78283131789157e+01°)
5.75439937337152e+02	(1.36351395806484e+01dB,-1.82255594268657e+01°)
5.88843655355584e+02	(1.36195421084286e+01dB,-1.86308489526587e+01°)
6.02559586074353e+02	(1.36032667435220e+01dB,-1.90442916284670e+01°)
6.16595001861477e+02	(1.35862865979919e+01dB,-1.94659953390970e+01°)
6.30957344480188e+02	(1.35685739429594e+01dB,-1.98960657147522e+01°)
6.45654229034650e+02	(1.35501002019982e+01dB,-2.03346058518721e+01°)
6.60693448007590e+02	(1.35308359463969e+01dB,-2.07817160222196e+01°)
6.76082975391976e+02	(1.35107508924732e+01dB,-2.12374933704707e+01°)
6.91830970918930e+02	(1.34898139011282e+01dB,-2.17020316006635e+01°)
