Freq.	V(n003)
1.00000000000000e+00	(4.33213811459335e-02dB,-3.38401701432849e-03°)
1.00230523807790e+00	(4.33213818198171e-02dB,-3.39181797178425e-03°)
1.00461579027839e+00	(4.33213824970014e-02dB,-3.39963688292462e-03°)
1.00693166885180e+00	(4.33213831772639e-02dB,-3.40747389023894e-03°)
1.00925288607668e+00	(4.33213838604721e-02dB,-3.41532889194960e-03°)
1.01157945425990e+00	(4.33213845471769e-02dB,-3.42320211196787e-03°)
1.01391138573668e+00	(4.33213852367583e-02dB,-3.43109336709394e-03°)
1.01624869287070e+00	(4.33213859295676e-02dB,-3.43900284052790e-03°)
1.01859138805412e+00	(4.33213866256297e-02dB,-3.44693057298113e-03°)
1.02093948370768e+00	(4.33213873249024e-02dB,-3.45487656445382e-03°)
1.02329299228075e+00	(4.33213880273512e-02dB,-3.46284083530180e-03°)
1.02565192625141e+00	(4.33213887332389e-02dB,-3.47082352801411e-03°)
1.02801629812647e+00	(4.33213894420953e-02dB,-3.47882458152440e-03°)
1.03038612044162e+00	(4.33213901544138e-02dB,-3.48684413832151e-03°)
1.03276140576140e+00	(4.33213908700254e-02dB,-3.49488217805042e-03°)
1.03514216667934e+00	(4.33213915888379e-02dB,-3.50293865999969e-03°)
1.03752841581801e+00	(4.33213923109705e-02dB,-3.51101376737009e-03°)
1.03992016582906e+00	(4.33213930364383e-02dB,-3.51910747980598e-03°)
1.04231742939330e+00	(4.33213937653989e-02dB,-3.52721989908526e-03°)
1.04472021922080e+00	(4.33213944976276e-02dB,-3.53535098449723e-03°)
1.04712854805090e+00	(4.33213952331360e-02dB,-3.54350079710864e-03°)
1.04954242865232e+00	(4.33213959720910e-02dB,-3.55166937763084e-03°)
1.05196187382322e+00	(4.33213967146500e-02dB,-3.55985682784164e-03°)
1.05438689639126e+00	(4.33213974603927e-02dB,-3.56806312738602e-03°)
1.05681750921366e+00	(4.33213982097279e-02dB,-3.57628841875307e-03°)
1.05925372517729e+00	(4.33213989625155e-02dB,-3.58453262052033e-03°)
1.06169555719872e+00	(4.33213997187804e-02dB,-3.59279581411050e-03°)
1.06414301822431e+00	(4.33214004784900e-02dB,-3.60107806059051e-03°)
1.06659612123026e+00	(4.33214012417020e-02dB,-3.60937942102722e-03°)
1.06905487922266e+00	(4.33214020082972e-02dB,-3.61769985470977e-03°)
1.07151930523760e+00	(4.33214027786173e-02dB,-3.62603952448250e-03°)
1.07398941234124e+00	(4.33214035525472e-02dB,-3.63439840999030e-03°)
1.07646521362983e+00	(4.33214043299505e-02dB,-3.64277659265579e-03°)
1.07894672222983e+00	(4.33214051108428e-02dB,-3.65117401141204e-03°)
1.08143395129794e+00	(4.33214058954426e-02dB,-3.65959086981551e-03°)
1.08392691402120e+00	(4.33214066836560e-02dB,-3.66802704573216e-03°)
1.08642562361706e+00	(4.33214074755137e-02dB,-3.67648276307405e-03°)
1.08893009333343e+00	(4.33214082710714e-02dB,-3.68495796077453e-03°)
1.09144033644875e+00	(4.33214090702081e-02dB,-3.69345263883364e-03°)
1.09395636627209e+00	(4.33214098730333e-02dB,-3.70196689902947e-03°)
1.09647819614318e+00	(4.33214106797061e-02dB,-3.71050088385123e-03°)
1.09900583943252e+00	(4.33214114899581e-02dB,-3.71905443045439e-03°)
1.10153930954141e+00	(4.33214123039982e-02dB,-3.72762774239504e-03°)
1.10407861990207e+00	(4.33214131218457e-02dB,-3.73622081967326e-03°)
1.10662378397766e+00	(4.33214139434182e-02dB,-3.74483368264477e-03°)
1.10917481526240e+00	(4.33214147687827e-02dB,-3.75346643308772e-03°)
1.11173172728159e+00	(4.33214155979085e-02dB,-3.76211903029111e-03°)
1.11429453359173e+00	(4.33214164308648e-02dB,-3.77079161674399e-03°)
1.11686324778056e+00	(4.33214172677111e-02dB,-3.77948419244668e-03°)
1.11943788346715e+00	(4.33214181085662e-02dB,-3.78819685917707e-03°)
1.12201845430196e+00	(4.33214189530119e-02dB,-3.79692951515771e-03°)
1.12460497396692e+00	(4.33214198015472e-02dB,-3.80568234358868e-03°)
1.12719745617551e+00	(4.33214206540529e-02dB,-3.81445536482584e-03°)
1.12979591467279e+00	(4.33214215102433e-02dB,-3.82324855851393e-03°)
1.13240036323555e+00	(4.33214223704886e-02dB,-3.83206204678647e-03°)
1.13501081567231e+00	(4.33214232348503e-02dB,-3.84089589071015e-03°)
1.13762728582343e+00	(4.33214241031020e-02dB,-3.84975009028545e-03°)
1.14024978756117e+00	(4.33214249753126e-02dB,-3.85862462515673e-03°)
1.14287833478977e+00	(4.33214258516493e-02dB,-3.86751969888017e-03°)
1.14551294144553e+00	(4.33214267319814e-02dB,-3.87643527074469e-03°)
1.14815362149688e+00	(4.33214276163282e-02dB,-3.88537136110594e-03°)
1.15080038894443e+00	(4.33214285047549e-02dB,-3.89432807174209e-03°)
1.15345325782109e+00	(4.33214293974304e-02dB,-3.90330544336419e-03°)
1.15611224219210e+00	(4.33214302941264e-02dB,-3.91230345561720e-03°)
1.15877735615512e+00	(4.33214311949157e-02dB,-3.92132223063461e-03°)
1.16144861384034e+00	(4.33214320999634e-02dB,-3.93036187019465e-03°)
1.16412602941049e+00	(4.33214330090334e-02dB,-3.93942225216361e-03°)
1.16680961706096e+00	(4.33214339225020e-02dB,-3.94850355974228e-03°)
1.16949939101987e+00	(4.33214348400850e-02dB,-3.95760579293073e-03°)
1.17219536554813e+00	(4.33214357619551e-02dB,-3.96672907386252e-03°)
1.17489755493953e+00	(4.33214366879820e-02dB,-3.97587330075983e-03°)
1.17760597352080e+00	(4.33214376183804e-02dB,-3.98503867717874e-03°)
1.18032063565173e+00	(4.33214385529797e-02dB,-3.99422512169727e-03°)
1.18304155572516e+00	(4.33214394918355e-02dB,-4.00343271573763e-03°)
1.18576874816716e+00	(4.33214404351761e-02dB,-4.01266160178915e-03°)
1.18850222743701e+00	(4.33214413828231e-02dB,-4.02191173914085e-03°)
1.19124200802737e+00	(4.33214423348935e-02dB,-4.03118324992647e-03°)
1.19398810446427e+00	(4.33214432912568e-02dB,-4.04047603236818e-03°)
1.19674053130724e+00	(4.33214442521856e-02dB,-4.04979031037743e-03°)
1.19949930314937e+00	(4.33214452173997e-02dB,-4.05912602288786e-03°)
1.20226443461741e+00	(4.33214461870218e-02dB,-4.06848329203309e-03°)
1.20503594037179e+00	(4.33214471612670e-02dB,-4.07786209745756e-03°)
1.20781383510677e+00	(4.33214481400085e-02dB,-4.08726254093935e-03°)
1.21059813355048e+00	(4.33214491231657e-02dB,-4.09668468354575e-03°)
1.21338885046497e+00	(4.33214501109632e-02dB,-4.10612852527647e-03°)
1.21618600064636e+00	(4.33214511032245e-02dB,-4.11559410684300e-03°)
1.21898959892486e+00	(4.33214521001107e-02dB,-4.12508153002345e-03°)
1.22179966016487e+00	(4.33214531015989e-02dB,-4.13459083552921e-03°)
1.22461619926504e+00	(4.33214541078098e-02dB,-4.14412206407131e-03°)
1.22743923115840e+00	(4.33214551184192e-02dB,-4.15367521565048e-03°)
1.23026877081238e+00	(4.33214561339394e-02dB,-4.16325047346661e-03°)
1.23310483322890e+00	(4.33214571539484e-02dB,-4.17284769503103e-03°)
1.23594743344450e+00	(4.33214581787608e-02dB,-4.18246712461097e-03°)
1.23879658653036e+00	(4.33214592083094e-02dB,-4.19210870113964e-03°)
1.24165230759240e+00	(4.33214602426594e-02dB,-4.20177252639520e-03°)
1.24451461177138e+00	(4.33214612818302e-02dB,-4.21145864108896e-03°)
1.24738351424294e+00	(4.33214623256489e-02dB,-4.22116704522120e-03°)
1.25025903021771e+00	(4.33214633743402e-02dB,-4.23089784057008e-03°)
1.25314117494141e+00	(4.33214644277695e-02dB,-4.24065104749117e-03°)
1.25602996369487e+00	(4.33214654862556e-02dB,-4.25042676776246e-03°)
1.25892541179416e+00	(4.33214665494857e-02dB,-4.26022500138436e-03°)
1.26182753459066e+00	(4.33214676176208e-02dB,-4.27004585013501e-03°)
1.26473634747114e+00	(4.33214686907378e-02dB,-4.27988929365877e-03°)
1.26765186585784e+00	(4.33214697688041e-02dB,-4.28975547444487e-03°)
1.27057410520853e+00	(4.33214708519482e-02dB,-4.29964439249374e-03°)
1.27350308101665e+00	(4.33214719399398e-02dB,-4.30955606816091e-03°)
1.27643880881134e+00	(4.33214730330553e-02dB,-4.31949066429140e-03°)
1.27938130415752e+00	(4.33214741311182e-02dB,-4.32944811981857e-03°)
1.28233058265601e+00	(4.33214752342953e-02dB,-4.33942851616466e-03°)
1.28528665994361e+00	(4.33214763426156e-02dB,-4.34943193475269e-03°)
1.28824955169313e+00	(4.33214774559043e-02dB,-4.35945839593810e-03°)
1.29121927361353e+00	(4.33214785744800e-02dB,-4.36950802185453e-03°)
1.29419584144998e+00	(4.33214796982218e-02dB,-4.37958077179110e-03°)
1.29717927098395e+00	(4.33214808269953e-02dB,-4.38967672717043e-03°)
1.30016957803328e+00	(4.33214819611806e-02dB,-4.39979598977026e-03°)
1.30316677845229e+00	(4.33214831004035e-02dB,-4.40993855959116e-03°)
1.30617088813183e+00	(4.33214842449824e-02dB,-4.42010449769973e-03°)
1.30918192299940e+00	(4.33214853948503e-02dB,-4.43029390587438e-03°)
1.31219989901919e+00	(4.33214865500186e-02dB,-4.44050680447054e-03°)
1.31522483219223e+00	(4.33214877104701e-02dB,-4.45074319348879e-03°)
1.31825673855640e+00	(4.33214888764293e-02dB,-4.46100323577342e-03°)
1.32129563418657e+00	(4.33214900476218e-02dB,-4.47128691096963e-03°)
1.32434153519466e+00	(4.33214912242682e-02dB,-4.48159430049961e-03°)
1.32739445772973e+00	(4.33214924062995e-02dB,-4.49192542471916e-03°)
1.33045441797808e+00	(4.33214935938789e-02dB,-4.50228034469510e-03°)
1.33352143216332e+00	(4.33214947868968e-02dB,-4.51265922327244e-03°)
1.33659551654643e+00	(4.33214959854685e-02dB,-4.52306199938459e-03°)
1.33967668742593e+00	(4.33214971894711e-02dB,-4.53348871374295e-03°)
1.34276496113785e+00	(4.33214983990870e-02dB,-4.54393946812547e-03°)
1.34586035405594e+00	(4.33214996142835e-02dB,-4.55441436431044e-03°)
1.34896288259164e+00	(4.33215008351335e-02dB,-4.56491336158660e-03°)
1.35207256319427e+00	(4.33215020615258e-02dB,-4.57543660244351e-03°)
1.35518941235103e+00	(4.33215032936254e-02dB,-4.58598404617005e-03°)
1.35831344658714e+00	(4.33215045314630e-02dB,-4.59655585561090e-03°)
1.36144468246594e+00	(4.33215057748658e-02dB,-4.60715196970002e-03°)
1.36458313658891e+00	(4.33215070241544e-02dB,-4.61777255128164e-03°)
1.36772882559584e+00	(4.33215082792117e-02dB,-4.62841764106750e-03°)
1.37088176616484e+00	(4.33215095399647e-02dB,-4.63908721870207e-03°)
1.37404197501251e+00	(4.33215108065805e-02dB,-4.64978144703024e-03°)
1.37720946889394e+00	(4.33215120790494e-02dB,-4.66050030569672e-03°)
1.38038426460287e+00	(4.33215133573887e-02dB,-4.67124387612371e-03°)
1.38356637897177e+00	(4.33215146416771e-02dB,-4.68201219902272e-03°)
1.38675582887188e+00	(4.33215159318436e-02dB,-4.69280535581651e-03°)
1.38995263121334e+00	(4.33215172279170e-02dB,-4.70362336686071e-03°)
1.39315680294529e+00	(4.33215185300219e-02dB,-4.71446635428878e-03°)
1.39636836105593e+00	(4.33215198381431e-02dB,-4.72533433845682e-03°)
1.39958732257261e+00	(4.33215211522441e-02dB,-4.73622733972037e-03°)
1.40281370456195e+00	(4.33215224724650e-02dB,-4.74714548021316e-03°)
1.40604752412990e+00	(4.33215237988287e-02dB,-4.75808878029114e-03°)
1.40928879842186e+00	(4.33215251312625e-02dB,-4.76905732137665e-03°)
1.41253754462274e+00	(4.33215264698469e-02dB,-4.78005112382547e-03°)
1.41579377995707e+00	(4.33215278146125e-02dB,-4.79107024870463e-03°)
1.41905752168908e+00	(4.33215291654884e-02dB,-4.80211481814789e-03°)
1.42232878712281e+00	(4.33215305227913e-02dB,-4.81318487286629e-03°)
1.42560759360218e+00	(4.33215318862159e-02dB,-4.82428039250488e-03°)
1.42889395851109e+00	(4.33215332561021e-02dB,-4.83540151955241e-03°)
1.43218789927353e+00	(4.33215346320697e-02dB,-4.84654825400981e-03°)
1.43548943335364e+00	(4.33215360145564e-02dB,-4.85772069765437e-03°)
1.43879857825583e+00	(4.33215374033548e-02dB,-4.86891891155370e-03°)
1.44211535152486e+00	(4.33215387986071e-02dB,-4.88014291606311e-03°)
1.44543977074592e+00	(4.33215402002537e-02dB,-4.89139281296109e-03°)
1.44877185354475e+00	(4.33215416084193e-02dB,-4.90266866331434e-03°)
1.45211161758773e+00	(4.33215430231116e-02dB,-4.91397048747858e-03°)
1.45545908058195e+00	(4.33215444441829e-02dB,-4.92529832616542e-03°)
1.45881426027534e+00	(4.33215458718884e-02dB,-4.93665230150838e-03°)
1.46217717445671e+00	(4.33215473062837e-02dB,-4.94803249493006e-03°)
1.46554784095590e+00	(4.33215487471251e-02dB,-4.95943884536406e-03°)
1.46892627764385e+00	(4.33215501947927e-02dB,-4.97087157672160e-03°)
1.47231250243271e+00	(4.33215516490886e-02dB,-4.98233060758077e-03°)
1.47570653327588e+00	(4.33215531100264e-02dB,-4.99381606007544e-03°)
1.47910838816819e+00	(4.33215545777808e-02dB,-5.00532801562789e-03°)
1.48251808514594e+00	(4.33215560522633e-02dB,-5.01686647423854e-03°)
1.48593564228699e+00	(4.33215575335720e-02dB,-5.02843153768518e-03°)
1.48936107771090e+00	(4.33215590217470e-02dB,-5.04002330774625e-03°)
1.49279440957898e+00	(4.33215605167616e-02dB,-5.05164174371062e-03°)
1.49623565609442e+00	(4.33215620186809e-02dB,-5.06328698806765e-03°)
1.49968483550236e+00	(4.33215635275089e-02dB,-5.07495906117306e-03°)
1.50314196609001e+00	(4.33215650433452e-02dB,-5.08665806480504e-03°)
1.50660706618673e+00	(4.33215665661343e-02dB,-5.09838399896383e-03°)
1.51008015416413e+00	(4.33215680959741e-02dB,-5.11013700613852e-03°)
1.51356124843619e+00	(4.33215696329009e-02dB,-5.12191708632949e-03°)
1.51705036745932e+00	(4.33215711768707e-02dB,-5.13372434131485e-03°)
1.52054752973248e+00	(4.33215727279678e-02dB,-5.14555877109483e-03°)
1.52405275379728e+00	(4.33215742862308e-02dB,-5.15742051815865e-03°)
1.52756605823806e+00	(4.33215758517055e-02dB,-5.16930960286199e-03°)
1.53108746168201e+00	(4.33215774244535e-02dB,-5.18122608627190e-03°)
1.53461698279928e+00	(4.33215790044172e-02dB,-5.19317007016676e-03°)
1.53815464030302e+00	(4.33215805916694e-02dB,-5.20514155454630e-03°)
1.54170045294954e+00	(4.33215821862467e-02dB,-5.21714064118897e-03°)
1.54525443953840e+00	(4.33215837881375e-02dB,-5.22916737080621e-03°)
1.54881661891247e+00	(4.33215853974705e-02dB,-5.24122184517594e-03°)
1.55238700995807e+00	(4.33215870142820e-02dB,-5.25330412536511e-03°)
1.55596563160506e+00	(4.33215886384339e-02dB,-5.26541425208539e-03°)
1.55955250282694e+00	(4.33215902701795e-02dB,-5.27755226604772e-03°)
1.56314764264094e+00	(4.33215919094575e-02dB,-5.28971830974167e-03°)
1.56675107010813e+00	(4.33215935562543e-02dB,-5.30191236281187e-03°)
1.57036280433354e+00	(4.33215952107005e-02dB,-5.31413452703631e-03°)
1.57398286446620e+00	(4.33215968727347e-02dB,-5.32638486348219e-03°)
1.57761126969933e+00	(4.33215985424642e-02dB,-5.33866347392727e-03°)
1.58124803927037e+00	(4.33216002199257e-02dB,-5.35097035837217e-03°)
1.58489319246110e+00	(4.33216019051056e-02dB,-5.36330561859469e-03°)
1.58854674859776e+00	(4.33216035980635e-02dB,-5.37566929530644e-03°)
1.59220872705115e+00	(4.33216052988128e-02dB,-5.38806151064119e-03°)
1.59587914723672e+00	(4.33216070074609e-02dB,-5.40048228495434e-03°)
1.59955802861465e+00	(4.33216087239157e-02dB,-5.41293165895760e-03°)
1.60324539069002e+00	(4.33216104483750e-02dB,-5.42540977514031e-03°)
1.60694125301286e+00	(4.33216121807657e-02dB,-5.43791663350249e-03°)
1.61064563517825e+00	(4.33216139211301e-02dB,-5.45045233582249e-03°)
1.61435855682647e+00	(4.33216156695986e-02dB,-5.46301690245572e-03°)
1.61808003764305e+00	(4.33216174260697e-02dB,-5.47561047589192e-03°)
1.62181009735891e+00	(4.33216191906680e-02dB,-5.48823303577559e-03°)
1.62554875575047e+00	(4.33216209634146e-02dB,-5.50088474495152e-03°)
1.62929603263970e+00	(4.33216227443403e-02dB,-5.51356558306435e-03°)
1.63305194789432e+00	(4.33216245335121e-02dB,-5.52627569260353e-03°)
1.63681652142779e+00	(4.33216263308956e-02dB,-5.53901505321366e-03°)
1.64058977319952e+00	(4.33216281365502e-02dB,-5.55178380738390e-03°)
1.64437172321491e+00	(4.33216299506123e-02dB,-5.56458199582570e-03°)
1.64816239152549e+00	(4.33216317730453e-02dB,-5.57740967960606e-03°)
1.65196179822900e+00	(4.33216336038703e-02dB,-5.59026694014755e-03°)
1.65576996346951e+00	(4.33216354430912e-02dB,-5.60315383851721e-03°)
1.65958690743754e+00	(4.33216372908807e-02dB,-5.61607045613739e-03°)
1.66341265037015e+00	(4.33216391471697e-02dB,-5.62901681336408e-03°)
1.66724721255104e+00	(4.33216410119851e-02dB,-5.64199303233106e-03°)
1.67109061431069e+00	(4.33216428854977e-02dB,-5.65499919446061e-03°)
1.67494287602642e+00	(4.33216447675885e-02dB,-5.66803529975321e-03°)
1.67880401812254e+00	(4.33216466584398e-02dB,-5.68110149069800e-03°)
1.68267406107045e+00	(4.33216485578962e-02dB,-5.69419776729544e-03°)
1.68655302538872e+00	(4.33216504662166e-02dB,-5.70732425167898e-03°)
1.69044093164324e+00	(4.33216523833245e-02dB,-5.72048100491576e-03°)
1.69433780044731e+00	(4.33216543092562e-02dB,-5.73366806771719e-03°)
1.69824365246172e+00	(4.33216562441250e-02dB,-5.74688554186125e-03°)
1.70215850839493e+00	(4.33216581879289e-02dB,-5.76013348841514e-03°)
1.70608238900310e+00	(4.33216601406007e-02dB,-5.77341194809011e-03°)
1.71001531509027e+00	(4.33216621023843e-02dB,-5.78672104301987e-03°)
1.71395730750840e+00	(4.33216640732258e-02dB,-5.80006081391594e-03°)
1.71790838715757e+00	(4.33216660531637e-02dB,-5.81343134220082e-03°)
1.72186857498599e+00	(4.33216680422171e-02dB,-5.82683268894152e-03°)
1.72583789199018e+00	(4.33216700404244e-02dB,-5.84026493556055e-03°)
1.72981635921508e+00	(4.33216720478816e-02dB,-5.85372816348053e-03°)
1.73380399775412e+00	(4.33216740646078e-02dB,-5.86722239305717e-03°)
1.73780082874935e+00	(4.33216760905609e-02dB,-5.88074770571323e-03°)
1.74180687339159e+00	(4.33216781259941e-02dB,-5.89430424393798e-03°)
1.74582215292048e+00	(4.33216801707981e-02dB,-5.90789202808694e-03°)
1.74984668862463e+00	(4.33216822249901e-02dB,-5.92151109887182e-03°)
1.75388050184174e+00	(4.33216842886892e-02dB,-5.93516161913752e-03°)
1.75792361395867e+00	(4.33216863618626e-02dB,-5.94884356852867e-03°)
1.76197604641161e+00	(4.33216884447312e-02dB,-5.96255706917885e-03°)
1.76603782068614e+00	(4.33216905370875e-02dB,-5.97630218215525e-03°)
1.77010895831740e+00	(4.33216926391044e-02dB,-5.99007898888033e-03°)
1.77418948089014e+00	(4.33216947509719e-02dB,-6.00388757077649e-03°)
1.77827941003890e+00	(4.33216968724327e-02dB,-6.01772792784432e-03°)
1.78237876744807e+00	(4.33216990037441e-02dB,-6.03160022292854e-03°)
1.78648757485203e+00	(4.33217011448925e-02dB,-6.04550451709616e-03°)
1.79060585403527e+00	(4.33217032958953e-02dB,-6.05944081034754e-03°)
1.79473362683250e+00	(4.33217054568773e-02dB,-6.07340930623855e-03°)
1.79887091512876e+00	(4.33217076278134e-02dB,-6.08740996405830e-03°)
1.80301774085954e+00	(4.33217098087363e-02dB,-6.10144288558495e-03°)
1.80717412601090e+00	(4.33217119997572e-02dB,-6.11550819295251e-03°)
1.81134009261958e+00	(4.33217142008897e-02dB,-6.12960584544966e-03°)
1.81551566277311e+00	(4.33217164122047e-02dB,-6.14373608734381e-03°)
1.81970085860996e+00	(4.33217186336812e-02dB,-6.15789885756864e-03°)
1.82389570231961e+00	(4.33217208654572e-02dB,-6.17209425790187e-03°)
1.82810021614272e+00	(4.33217231074906e-02dB,-6.18632243083336e-03°)
1.83231442237119e+00	(4.33217253598927e-02dB,-6.20058337636305e-03°)
1.83653834334832e+00	(4.33217276227191e-02dB,-6.21487721662454e-03°)
1.84077200146893e+00	(4.33217298959123e-02dB,-6.22920395161845e-03°)
1.84501541917945e+00	(4.33217321796488e-02dB,-6.24356376454509e-03°)
1.84926861897805e+00	(4.33217344739017e-02dB,-6.25795665540461e-03°)
1.85353162341478e+00	(4.33217367787728e-02dB,-6.27238274633094e-03°)
1.85780445509167e+00	(4.33217390943292e-02dB,-6.28684209839093e-03°)
1.86208713666284e+00	(4.33217414205230e-02dB,-6.30133475229600e-03°)
1.86637969083464e+00	(4.33217437574558e-02dB,-6.31586083018006e-03°)
1.87068214036577e+00	(4.33217461051507e-02dB,-6.33042037275450e-03°)
1.87499450806739e+00	(4.33217484637094e-02dB,-6.34501354286414e-03°)
1.87931681680324e+00	(4.33217508331492e-02dB,-6.35964029979796e-03°)
1.88364908948977e+00	(4.33217532135544e-02dB,-6.37430080640104e-03°)
1.88799134909627e+00	(4.33217556048484e-02dB,-6.38899504231816e-03°)
1.89234361864495e+00	(4.33217580072768e-02dB,-6.40372321110523e-03°)
1.89670592121112e+00	(4.33217604208204e-02dB,-6.41848533311795e-03°)
1.90107827992327e+00	(4.33217628453852e-02dB,-6.43328146942383e-03°)
1.90546071796322e+00	(4.33217652812282e-02dB,-6.44811170144475e-03°)
1.90985325856621e+00	(4.33217677283265e-02dB,-6.46297617167065e-03°)
1.91425592502106e+00	(4.33217701866898e-02dB,-6.47787485974587e-03°)
1.91866874067026e+00	(4.33217726563754e-02dB,-6.49280790816003e-03°)
1.92309172891013e+00	(4.33217751374872e-02dB,-6.50777537797982e-03°)
