Freq.	V(n002)
1.00000000000000e+00	(-6.05145776060314e+01dB,8.99892000001279e+01°)
1.00230523807790e+00	(-6.04945776067437e+01dB,8.99891751035576e+01°)
1.00461579027839e+00	(-6.04745776074592e+01dB,8.99891501495947e+01°)
1.00693166885180e+00	(-6.04545776081780e+01dB,8.99891251381070e+01°)
1.00925288607668e+00	(-6.04345776089002e+01dB,8.99891000689619e+01°)
1.01157945425990e+00	(-6.04145776096257e+01dB,8.99890749420264e+01°)
1.01391138573668e+00	(-6.03945776103545e+01dB,8.99890497571674e+01°)
1.01624869287070e+00	(-6.03745776110867e+01dB,8.99890245142513e+01°)
1.01859138805412e+00	(-6.03545776118223e+01dB,8.99889992131442e+01°)
1.02093948370768e+00	(-6.03345776125613e+01dB,8.99889738537121e+01°)
1.02329299228075e+00	(-6.03145776133037e+01dB,8.99889484358204e+01°)
1.02565192625141e+00	(-6.02945776140495e+01dB,8.99889229593345e+01°)
1.02801629812647e+00	(-6.02745776147988e+01dB,8.99888974241192e+01°)
1.03038612044162e+00	(-6.02545776155515e+01dB,8.99888718300392e+01°)
1.03276140576140e+00	(-6.02345776163077e+01dB,8.99888461769587e+01°)
1.03514216667934e+00	(-6.02145776170674e+01dB,8.99888204647417e+01°)
1.03752841581801e+00	(-6.01945776178306e+01dB,8.99887946932520e+01°)
1.03992016582906e+00	(-6.01745776185973e+01dB,8.99887688623529e+01°)
1.04231742939330e+00	(-6.01545776193675e+01dB,8.99887429719074e+01°)
1.04472021922080e+00	(-6.01345776201413e+01dB,8.99887170217783e+01°)
1.04712854805090e+00	(-6.01145776209187e+01dB,8.99886910118279e+01°)
1.04954242865232e+00	(-6.00945776216997e+01dB,8.99886649419184e+01°)
1.05196187382322e+00	(-6.00745776224842e+01dB,8.99886388119116e+01°)
1.05438689639126e+00	(-6.00545776232724e+01dB,8.99886126216689e+01°)
1.05681750921366e+00	(-6.00345776240643e+01dB,8.99885863710515e+01°)
1.05925372517729e+00	(-6.00145776248598e+01dB,8.99885600599201e+01°)
1.06169555719872e+00	(-5.99945776256589e+01dB,8.99885336881353e+01°)
1.06414301822431e+00	(-5.99745776264618e+01dB,8.99885072555573e+01°)
1.06659612123026e+00	(-5.99545776272683e+01dB,8.99884807620459e+01°)
1.06905487922266e+00	(-5.99345776280786e+01dB,8.99884542074607e+01°)
1.07151930523760e+00	(-5.99145776288926e+01dB,8.99884275916608e+01°)
1.07398941234124e+00	(-5.98945776297104e+01dB,8.99884009145052e+01°)
1.07646521362983e+00	(-5.98745776305319e+01dB,8.99883741758524e+01°)
1.07894672222983e+00	(-5.98545776313573e+01dB,8.99883473755606e+01°)
1.08143395129794e+00	(-5.98345776321864e+01dB,8.99883205134877e+01°)
1.08392691402120e+00	(-5.98145776330194e+01dB,8.99882935894915e+01°)
1.08642562361706e+00	(-5.97945776338562e+01dB,8.99882666034290e+01°)
1.08893009333343e+00	(-5.97745776346969e+01dB,8.99882395551572e+01°)
1.09144033644875e+00	(-5.97545776355415e+01dB,8.99882124445327e+01°)
1.09395636627209e+00	(-5.97345776363899e+01dB,8.99881852714117e+01°)
1.09647819614318e+00	(-5.97145776372423e+01dB,8.99881580356503e+01°)
1.09900583943252e+00	(-5.96945776380986e+01dB,8.99881307371039e+01°)
1.10153930954141e+00	(-5.96745776389589e+01dB,8.99881033756279e+01°)
1.10407861990207e+00	(-5.96545776398231e+01dB,8.99880759510772e+01°)
1.10662378397766e+00	(-5.96345776406913e+01dB,8.99880484633064e+01°)
1.10917481526240e+00	(-5.96145776415636e+01dB,8.99880209121697e+01°)
1.11173172728159e+00	(-5.95945776424398e+01dB,8.99879932975211e+01°)
1.11429453359173e+00	(-5.95745776433201e+01dB,8.99879656192142e+01°)
1.11686324778056e+00	(-5.95545776442045e+01dB,8.99879378771022e+01°)
1.11943788346715e+00	(-5.95345776450930e+01dB,8.99879100710380e+01°)
1.12201845430196e+00	(-5.95145776459855e+01dB,8.99878822008742e+01°)
1.12460497396692e+00	(-5.94945776468822e+01dB,8.99878542664631e+01°)
1.12719745617551e+00	(-5.94745776477830e+01dB,8.99878262676565e+01°)
1.12979591467279e+00	(-5.94545776486880e+01dB,8.99877982043060e+01°)
1.13240036323555e+00	(-5.94345776495971e+01dB,8.99877700762628e+01°)
1.13501081567231e+00	(-5.94145776505104e+01dB,8.99877418833778e+01°)
1.13762728582343e+00	(-5.93945776514280e+01dB,8.99877136255014e+01°)
1.14024978756117e+00	(-5.93745776523498e+01dB,8.99876853024840e+01°)
1.14287833478977e+00	(-5.93545776532758e+01dB,8.99876569141752e+01°)
1.14551294144553e+00	(-5.93345776542062e+01dB,8.99876284604246e+01°)
1.14815362149688e+00	(-5.93145776551408e+01dB,8.99875999410814e+01°)
1.15080038894443e+00	(-5.92945776560797e+01dB,8.99875713559943e+01°)
1.15345325782109e+00	(-5.92745776570230e+01dB,8.99875427050118e+01°)
1.15611224219210e+00	(-5.92545776579706e+01dB,8.99875139879820e+01°)
1.15877735615512e+00	(-5.92345776589226e+01dB,8.99874852047525e+01°)
1.16144861384034e+00	(-5.92145776598790e+01dB,8.99874563551709e+01°)
1.16412602941049e+00	(-5.91945776608398e+01dB,8.99874274390842e+01°)
1.16680961706096e+00	(-5.91745776618050e+01dB,8.99873984563389e+01°)
1.16949939101987e+00	(-5.91545776627747e+01dB,8.99873694067816e+01°)
1.17219536554813e+00	(-5.91345776637488e+01dB,8.99873402902581e+01°)
1.17489755493953e+00	(-5.91145776647275e+01dB,8.99873111066141e+01°)
1.17760597352080e+00	(-5.90945776657107e+01dB,8.99872818556949e+01°)
1.18032063565173e+00	(-5.90745776666984e+01dB,8.99872525373453e+01°)
1.18304155572516e+00	(-5.90545776676907e+01dB,8.99872231514100e+01°)
1.18576874816716e+00	(-5.90345776686875e+01dB,8.99871936977330e+01°)
1.18850222743701e+00	(-5.90145776696890e+01dB,8.99871641761584e+01°)
1.19124200802737e+00	(-5.89945776706951e+01dB,8.99871345865295e+01°)
1.19398810446427e+00	(-5.89745776717058e+01dB,8.99871049286895e+01°)
1.19674053130724e+00	(-5.89545776727212e+01dB,8.99870752024811e+01°)
1.19949930314937e+00	(-5.89345776737413e+01dB,8.99870454077467e+01°)
1.20226443461741e+00	(-5.89145776747661e+01dB,8.99870155443284e+01°)
1.20503594037179e+00	(-5.88945776757956e+01dB,8.99869856120678e+01°)
1.20781383510677e+00	(-5.88745776768298e+01dB,8.99869556108062e+01°)
1.21059813355048e+00	(-5.88545776778689e+01dB,8.99869255403846e+01°)
1.21338885046497e+00	(-5.88345776789127e+01dB,8.99868954006435e+01°)
1.21618600064636e+00	(-5.88145776799614e+01dB,8.99868651914231e+01°)
1.21898959892486e+00	(-5.87945776810149e+01dB,8.99868349125633e+01°)
1.22179966016487e+00	(-5.87745776820732e+01dB,8.99868045639035e+01°)
1.22461619926504e+00	(-5.87545776831365e+01dB,8.99867741452829e+01°)
1.22743923115840e+00	(-5.87345776842046e+01dB,8.99867436565400e+01°)
1.23026877081238e+00	(-5.87145776852777e+01dB,8.99867130975134e+01°)
1.23310483322890e+00	(-5.86945776863557e+01dB,8.99866824680410e+01°)
1.23594743344450e+00	(-5.86745776874388e+01dB,8.99866517679603e+01°)
1.23879658653036e+00	(-5.86545776885268e+01dB,8.99866209971086e+01°)
1.24165230759240e+00	(-5.86345776896198e+01dB,8.99865901553228e+01°)
1.24451461177138e+00	(-5.86145776907179e+01dB,8.99865592424394e+01°)
1.24738351424294e+00	(-5.85945776918210e+01dB,8.99865282582944e+01°)
1.25025903021771e+00	(-5.85745776929293e+01dB,8.99864972027236e+01°)
1.25314117494141e+00	(-5.85545776940426e+01dB,8.99864660755623e+01°)
1.25602996369487e+00	(-5.85345776951611e+01dB,8.99864348766456e+01°)
1.25892541179416e+00	(-5.85145776962848e+01dB,8.99864036058078e+01°)
1.26182753459066e+00	(-5.84945776974136e+01dB,8.99863722628834e+01°)
1.26473634747114e+00	(-5.84745776985476e+01dB,8.99863408477061e+01°)
1.26765186585784e+00	(-5.84545776996869e+01dB,8.99863093601093e+01°)
1.27057410520853e+00	(-5.84345777008315e+01dB,8.99862777999261e+01°)
1.27350308101665e+00	(-5.84145777019813e+01dB,8.99862461669892e+01°)
1.27643880881134e+00	(-5.83945777031364e+01dB,8.99862144611309e+01°)
1.27938130415752e+00	(-5.83745777042969e+01dB,8.99861826821830e+01°)
1.28233058265601e+00	(-5.83545777054627e+01dB,8.99861508299770e+01°)
1.28528665994361e+00	(-5.83345777066339e+01dB,8.99861189043442e+01°)
1.28824955169313e+00	(-5.83145777078105e+01dB,8.99860869051152e+01°)
1.29121927361353e+00	(-5.82945777089926e+01dB,8.99860548321203e+01°)
1.29419584144998e+00	(-5.82745777101801e+01dB,8.99860226851896e+01°)
1.29717927098395e+00	(-5.82545777113731e+01dB,8.99859904641526e+01°)
1.30016957803328e+00	(-5.82345777125716e+01dB,8.99859581688384e+01°)
1.30316677845229e+00	(-5.82145777137756e+01dB,8.99859257990758e+01°)
1.30617088813183e+00	(-5.81945777149851e+01dB,8.99858933546932e+01°)
1.30918192299940e+00	(-5.81745777162003e+01dB,8.99858608355186e+01°)
1.31219989901919e+00	(-5.81545777174211e+01dB,8.99858282413796e+01°)
1.31522483219223e+00	(-5.81345777186475e+01dB,8.99857955721033e+01°)
1.31825673855640e+00	(-5.81145777198795e+01dB,8.99857628275166e+01°)
1.32129563418657e+00	(-5.80945777211173e+01dB,8.99857300074458e+01°)
1.32434153519466e+00	(-5.80745777223607e+01dB,8.99856971117170e+01°)
1.32739445772973e+00	(-5.80545777236099e+01dB,8.99856641401557e+01°)
1.33045441797808e+00	(-5.80345777248649e+01dB,8.99856310925871e+01°)
1.33352143216332e+00	(-5.80145777261257e+01dB,8.99855979688360e+01°)
1.33659551654643e+00	(-5.79945777273923e+01dB,8.99855647687267e+01°)
1.33967668742593e+00	(-5.79745777286647e+01dB,8.99855314920834e+01°)
1.34276496113785e+00	(-5.79545777299430e+01dB,8.99854981387294e+01°)
1.34586035405594e+00	(-5.79345777312272e+01dB,8.99854647084880e+01°)
1.34896288259164e+00	(-5.79145777325173e+01dB,8.99854312011820e+01°)
1.35207256319427e+00	(-5.78945777338134e+01dB,8.99853976166337e+01°)
1.35518941235103e+00	(-5.78745777351155e+01dB,8.99853639546650e+01°)
1.35831344658714e+00	(-5.78545777364235e+01dB,8.99853302150974e+01°)
1.36144468246594e+00	(-5.78345777377376e+01dB,8.99852963977521e+01°)
1.36458313658891e+00	(-5.78145777390578e+01dB,8.99852625024498e+01°)
1.36772882559584e+00	(-5.77945777403841e+01dB,8.99852285290108e+01°)
1.37088176616484e+00	(-5.77745777417165e+01dB,8.99851944772550e+01°)
1.37404197501251e+00	(-5.77545777430550e+01dB,8.99851603470017e+01°)
1.37720946889394e+00	(-5.77345777443998e+01dB,8.99851261380701e+01°)
1.38038426460287e+00	(-5.77145777457507e+01dB,8.99850918502787e+01°)
1.38356637897177e+00	(-5.76945777471079e+01dB,8.99850574834459e+01°)
1.38675582887188e+00	(-5.76745777484713e+01dB,8.99850230373893e+01°)
1.38995263121334e+00	(-5.76545777498410e+01dB,8.99849885119264e+01°)
1.39315680294529e+00	(-5.76345777512171e+01dB,8.99849539068741e+01°)
1.39636836105593e+00	(-5.76145777525994e+01dB,8.99849192220489e+01°)
1.39958732257261e+00	(-5.75945777539882e+01dB,8.99848844572669e+01°)
1.40281370456195e+00	(-5.75745777553834e+01dB,8.99848496123438e+01°)
1.40604752412990e+00	(-5.75545777567850e+01dB,8.99848146870950e+01°)
1.40928879842186e+00	(-5.75345777581931e+01dB,8.99847796813351e+01°)
1.41253754462274e+00	(-5.75145777596077e+01dB,8.99847445948786e+01°)
1.41579377995707e+00	(-5.74945777610289e+01dB,8.99847094275395e+01°)
1.41905752168908e+00	(-5.74745777624565e+01dB,8.99846741791313e+01°)
1.42232878712281e+00	(-5.74545777638908e+01dB,8.99846388494671e+01°)
1.42560759360218e+00	(-5.74345777653317e+01dB,8.99846034383597e+01°)
1.42889395851109e+00	(-5.74145777667793e+01dB,8.99845679456213e+01°)
1.43218789927353e+00	(-5.73945777682335e+01dB,8.99845323710636e+01°)
1.43548943335364e+00	(-5.73745777696944e+01dB,8.99844967144981e+01°)
1.43879857825583e+00	(-5.73545777711621e+01dB,8.99844609757358e+01°)
1.44211535152486e+00	(-5.73345777726366e+01dB,8.99844251545871e+01°)
1.44543977074592e+00	(-5.73145777741178e+01dB,8.99843892508622e+01°)
1.44877185354475e+00	(-5.72945777756059e+01dB,8.99843532643707e+01°)
1.45211161758773e+00	(-5.72745777771009e+01dB,8.99843171949217e+01°)
1.45545908058195e+00	(-5.72545777786028e+01dB,8.99842810423241e+01°)
1.45881426027534e+00	(-5.72345777801116e+01dB,8.99842448063861e+01°)
1.46217717445671e+00	(-5.72145777816274e+01dB,8.99842084869157e+01°)
1.46554784095590e+00	(-5.71945777831501e+01dB,8.99841720837203e+01°)
1.46892627764385e+00	(-5.71745777846799e+01dB,8.99841355966069e+01°)
1.47231250243271e+00	(-5.71545777862168e+01dB,8.99840990253820e+01°)
1.47570653327588e+00	(-5.71345777877607e+01dB,8.99840623698517e+01°)
1.47910838816819e+00	(-5.71145777893118e+01dB,8.99840256298217e+01°)
1.48251808514594e+00	(-5.70945777908700e+01dB,8.99839888050972e+01°)
1.48593564228699e+00	(-5.70745777924355e+01dB,8.99839518954830e+01°)
1.48936107771090e+00	(-5.70545777940081e+01dB,8.99839149007833e+01°)
1.49279440957898e+00	(-5.70345777955880e+01dB,8.99838778208021e+01°)
1.49623565609442e+00	(-5.70145777971752e+01dB,8.99838406553426e+01°)
1.49968483550236e+00	(-5.69945777987698e+01dB,8.99838034042080e+01°)
1.50314196609001e+00	(-5.69745778003716e+01dB,8.99837660672006e+01°)
1.50660706618673e+00	(-5.69545778019809e+01dB,8.99837286441226e+01°)
1.51008015416413e+00	(-5.69345778035976e+01dB,8.99836911347755e+01°)
1.51356124843619e+00	(-5.69145778052218e+01dB,8.99836535389604e+01°)
1.51705036745932e+00	(-5.68945778068535e+01dB,8.99836158564780e+01°)
1.52054752973248e+00	(-5.68745778084927e+01dB,8.99835780871286e+01°)
1.52405275379728e+00	(-5.68545778101395e+01dB,8.99835402307118e+01°)
1.52756605823806e+00	(-5.68345778117938e+01dB,8.99835022870270e+01°)
1.53108746168201e+00	(-5.68145778134558e+01dB,8.99834642558729e+01°)
1.53461698279928e+00	(-5.67945778151255e+01dB,8.99834261370481e+01°)
1.53815464030302e+00	(-5.67745778168029e+01dB,8.99833879303502e+01°)
1.54170045294954e+00	(-5.67545778184880e+01dB,8.99833496355769e+01°)
1.54525443953840e+00	(-5.67345778201809e+01dB,8.99833112525250e+01°)
1.54881661891247e+00	(-5.67145778218816e+01dB,8.99832727809910e+01°)
1.55238700995807e+00	(-5.66945778235902e+01dB,8.99832342207710e+01°)
1.55596563160506e+00	(-5.66745778253067e+01dB,8.99831955716605e+01°)
1.55955250282694e+00	(-5.66545778270311e+01dB,8.99831568334546e+01°)
1.56314764264094e+00	(-5.66345778287634e+01dB,8.99831180059480e+01°)
1.56675107010813e+00	(-5.66145778305037e+01dB,8.99830790889348e+01°)
1.57036280433354e+00	(-5.65945778322521e+01dB,8.99830400822085e+01°)
1.57398286446620e+00	(-5.65745778340085e+01dB,8.99830009855625e+01°)
1.57761126969933e+00	(-5.65545778357731e+01dB,8.99829617987895e+01°)
1.58124803927037e+00	(-5.65345778375458e+01dB,8.99829225216816e+01°)
1.58489319246110e+00	(-5.65145778393266e+01dB,8.99828831540306e+01°)
1.58854674859776e+00	(-5.64945778411157e+01dB,8.99828436956279e+01°)
1.59220872705115e+00	(-5.64745778429131e+01dB,8.99828041462641e+01°)
1.59587914723672e+00	(-5.64545778447187e+01dB,8.99827645057297e+01°)
1.59955802861465e+00	(-5.64345778465327e+01dB,8.99827247738145e+01°)
1.60324539069002e+00	(-5.64145778483551e+01dB,8.99826849503077e+01°)
1.60694125301286e+00	(-5.63945778501858e+01dB,8.99826450349982e+01°)
1.61064563517825e+00	(-5.63745778520250e+01dB,8.99826050276745e+01°)
1.61435855682647e+00	(-5.63545778538727e+01dB,8.99825649281244e+01°)
1.61808003764305e+00	(-5.63345778557290e+01dB,8.99825247361353e+01°)
1.62181009735891e+00	(-5.63145778575938e+01dB,8.99824844514942e+01°)
1.62554875575047e+00	(-5.62945778594672e+01dB,8.99824440739873e+01°)
1.62929603263970e+00	(-5.62745778613493e+01dB,8.99824036034007e+01°)
1.63305194789432e+00	(-5.62545778632400e+01dB,8.99823630395198e+01°)
1.63681652142779e+00	(-5.62345778651395e+01dB,8.99823223821295e+01°)
1.64058977319952e+00	(-5.62145778670477e+01dB,8.99822816310143e+01°)
1.64437172321491e+00	(-5.61945778689647e+01dB,8.99822407859580e+01°)
1.64816239152549e+00	(-5.61745778708907e+01dB,8.99821998467442e+01°)
1.65196179822900e+00	(-5.61545778728254e+01dB,8.99821588131558e+01°)
1.65576996346951e+00	(-5.61345778747691e+01dB,8.99821176849752e+01°)
1.65958690743754e+00	(-5.61145778767218e+01dB,8.99820764619843e+01°)
1.66341265037015e+00	(-5.60945778786835e+01dB,8.99820351439647e+01°)
1.66724721255104e+00	(-5.60745778806543e+01dB,8.99819937306972e+01°)
1.67109061431069e+00	(-5.60545778826341e+01dB,8.99819522219623e+01°)
1.67494287602642e+00	(-5.60345778846231e+01dB,8.99819106175400e+01°)
1.67880401812254e+00	(-5.60145778866213e+01dB,8.99818689172095e+01°)
1.68267406107045e+00	(-5.59945778886287e+01dB,8.99818271207498e+01°)
1.68655302538872e+00	(-5.59745778906454e+01dB,8.99817852279394e+01°)
1.69044093164324e+00	(-5.59545778926713e+01dB,8.99817432385561e+01°)
1.69433780044731e+00	(-5.59345778947066e+01dB,8.99817011523773e+01°)
1.69824365246172e+00	(-5.59145778967514e+01dB,8.99816589691799e+01°)
1.70215850839493e+00	(-5.58945778988055e+01dB,8.99816166887401e+01°)
1.70608238900310e+00	(-5.58745779008691e+01dB,8.99815743108340e+01°)
1.71001531509027e+00	(-5.58545779029423e+01dB,8.99815318352366e+01°)
1.71395730750840e+00	(-5.58345779050250e+01dB,8.99814892617229e+01°)
1.71790838715757e+00	(-5.58145779071174e+01dB,8.99814465900672e+01°)
1.72186857498599e+00	(-5.57945779092194e+01dB,8.99814038200431e+01°)
1.72583789199018e+00	(-5.57745779113311e+01dB,8.99813609514240e+01°)
1.72981635921508e+00	(-5.57545779134525e+01dB,8.99813179839825e+01°)
1.73380399775412e+00	(-5.57345779155838e+01dB,8.99812749174909e+01°)
1.73780082874935e+00	(-5.57145779177248e+01dB,8.99812317517208e+01°)
1.74180687339159e+00	(-5.56945779198758e+01dB,8.99811884864433e+01°)
1.74582215292048e+00	(-5.56745779220367e+01dB,8.99811451214291e+01°)
1.74984668862463e+00	(-5.56545779242076e+01dB,8.99811016564482e+01°)
1.75388050184174e+00	(-5.56345779263884e+01dB,8.99810580912702e+01°)
1.75792361395867e+00	(-5.56145779285794e+01dB,8.99810144256641e+01°)
1.76197604641161e+00	(-5.55945779307805e+01dB,8.99809706593984e+01°)
1.76603782068614e+00	(-5.55745779329917e+01dB,8.99809267922411e+01°)
1.77010895831740e+00	(-5.55545779352131e+01dB,8.99808828239596e+01°)
1.77418948089014e+00	(-5.55345779374448e+01dB,8.99808387543207e+01°)
1.77827941003890e+00	(-5.55145779396868e+01dB,8.99807945830909e+01°)
1.78237876744807e+00	(-5.54945779419391e+01dB,8.99807503100358e+01°)
1.78648757485203e+00	(-5.54745779442019e+01dB,8.99807059349209e+01°)
1.79060585403527e+00	(-5.54545779464750e+01dB,8.99806614575108e+01°)
1.79473362683250e+00	(-5.54345779487587e+01dB,8.99806168775696e+01°)
1.79887091512876e+00	(-5.54145779510529e+01dB,8.99805721948612e+01°)
1.80301774085954e+00	(-5.53945779533577e+01dB,8.99805274091485e+01°)
1.80717412601090e+00	(-5.53745779556731e+01dB,8.99804825201940e+01°)
1.81134009261958e+00	(-5.53545779579993e+01dB,8.99804375277599e+01°)
1.81551566277311e+00	(-5.53345779603361e+01dB,8.99803924316075e+01°)
1.81970085860996e+00	(-5.53145779626838e+01dB,8.99803472314977e+01°)
1.82389570231961e+00	(-5.52945779650422e+01dB,8.99803019271910e+01°)
1.82810021614272e+00	(-5.52745779674116e+01dB,8.99802565184471e+01°)
1.83231442237119e+00	(-5.52545779697919e+01dB,8.99802110050253e+01°)
1.83653834334832e+00	(-5.52345779721832e+01dB,8.99801653866842e+01°)
1.84077200146893e+00	(-5.52145779745855e+01dB,8.99801196631820e+01°)
1.84501541917945e+00	(-5.51945779769990e+01dB,8.99800738342762e+01°)
1.84926861897805e+00	(-5.51745779794235e+01dB,8.99800278997240e+01°)
1.85353162341478e+00	(-5.51545779818593e+01dB,8.99799818592817e+01°)
1.85780445509167e+00	(-5.51345779843063e+01dB,8.99799357127052e+01°)
1.86208713666284e+00	(-5.51145779867645e+01dB,8.99798894597499e+01°)
1.86637969083464e+00	(-5.50945779892342e+01dB,8.99798431001706e+01°)
1.87068214036577e+00	(-5.50745779917152e+01dB,8.99797966337214e+01°)
1.87499450806739e+00	(-5.50545779942077e+01dB,8.99797500601560e+01°)
1.87931681680324e+00	(-5.50345779967117e+01dB,8.99797033792275e+01°)
1.88364908948977e+00	(-5.50145779992272e+01dB,8.99796565906884e+01°)
1.88799134909627e+00	(-5.49945780017544e+01dB,8.99796096942906e+01°)
1.89234361864495e+00	(-5.49745780042932e+01dB,8.99795626897854e+01°)
1.89670592121112e+00	(-5.49545780068438e+01dB,8.99795155769237e+01°)
1.90107827992327e+00	(-5.49345780094061e+01dB,8.99794683554557e+01°)
1.90546071796322e+00	(-5.49145780119802e+01dB,8.99794210251309e+01°)
1.90985325856621e+00	(-5.48945780145662e+01dB,8.99793735856985e+01°)
1.91425592502106e+00	(-5.48745780171642e+01dB,8.99793260369070e+01°)
1.91866874067026e+00	(-5.48545780197742e+01dB,8.99792783785042e+01°)
1.92309172891013e+00	(-5.48345780223962e+01dB,8.99792306102375e+01°)
