Freq.	V(n002)
1.00000000000000e+00	(-7.11240281999160e+01dB,8.99841600004035e+01°)
1.00230523807790e+00	(-7.11040282014481e+01dB,8.99841234854352e+01°)
1.00461579027839e+00	(-7.10840282029873e+01dB,8.99840868862912e+01°)
1.00693166885180e+00	(-7.10640282045336e+01dB,8.99840502027774e+01°)
1.00925288607668e+00	(-7.10440282060871e+01dB,8.99840134346994e+01°)
1.01157945425990e+00	(-7.10240282076477e+01dB,8.99839765818623e+01°)
1.01391138573668e+00	(-7.10040282092155e+01dB,8.99839396440706e+01°)
1.01624869287070e+00	(-7.09840282107906e+01dB,8.99839026211285e+01°)
1.01859138805412e+00	(-7.09640282123729e+01dB,8.99838655128397e+01°)
1.02093948370768e+00	(-7.09440282139625e+01dB,8.99838283190075e+01°)
1.02329299228075e+00	(-7.09240282155595e+01dB,8.99837910394347e+01°)
1.02565192625141e+00	(-7.09040282171638e+01dB,8.99837536739236e+01°)
1.02801629812647e+00	(-7.08840282187756e+01dB,8.99837162222761e+01°)
1.03038612044162e+00	(-7.08640282203947e+01dB,8.99836786842937e+01°)
1.03276140576140e+00	(-7.08440282220214e+01dB,8.99836410597773e+01°)
1.03514216667934e+00	(-7.08240282236556e+01dB,8.99836033485274e+01°)
1.03752841581801e+00	(-7.08040282252973e+01dB,8.99835655503442e+01°)
1.03992016582906e+00	(-7.07840282269465e+01dB,8.99835276650271e+01°)
1.04231742939330e+00	(-7.07640282286035e+01dB,8.99834896923754e+01°)
1.04472021922080e+00	(-7.07440282302680e+01dB,8.99834516321877e+01°)
1.04712854805090e+00	(-7.07240282319402e+01dB,8.99834134842622e+01°)
1.04954242865232e+00	(-7.07040282336202e+01dB,8.99833752483967e+01°)
1.05196187382322e+00	(-7.06840282353079e+01dB,8.99833369243884e+01°)
1.05438689639126e+00	(-7.06640282370034e+01dB,8.99832985120342e+01°)
1.05681750921366e+00	(-7.06440282387067e+01dB,8.99832600111304e+01°)
1.05925372517729e+00	(-7.06240282404179e+01dB,8.99832214214728e+01°)
1.06169555719872e+00	(-7.06040282421369e+01dB,8.99831827428569e+01°)
1.06414301822431e+00	(-7.05840282438639e+01dB,8.99831439750776e+01°)
1.06659612123026e+00	(-7.05640282455989e+01dB,8.99831051179294e+01°)
1.06905487922266e+00	(-7.05440282473419e+01dB,8.99830661712062e+01°)
1.07151930523760e+00	(-7.05240282490930e+01dB,8.99830271347015e+01°)
1.07398941234124e+00	(-7.05040282508521e+01dB,8.99829880082084e+01°)
1.07646521362983e+00	(-7.04840282526193e+01dB,8.99829487915195e+01°)
1.07894672222983e+00	(-7.04640282543947e+01dB,8.99829094844268e+01°)
1.08143395129794e+00	(-7.04440282561783e+01dB,8.99828700867218e+01°)
1.08392691402120e+00	(-7.04240282579701e+01dB,8.99828305981958e+01°)
1.08642562361706e+00	(-7.04040282597702e+01dB,8.99827910186394e+01°)
1.08893009333343e+00	(-7.03840282615786e+01dB,8.99827513478427e+01°)
1.09144033644875e+00	(-7.03640282633954e+01dB,8.99827115855953e+01°)
1.09395636627209e+00	(-7.03440282652205e+01dB,8.99826717316866e+01°)
1.09647819614318e+00	(-7.03240282670541e+01dB,8.99826317859051e+01°)
1.09900583943252e+00	(-7.03040282688961e+01dB,8.99825917480391e+01°)
1.10153930954141e+00	(-7.02840282707466e+01dB,8.99825516178762e+01°)
1.10407861990207e+00	(-7.02640282726057e+01dB,8.99825113952039e+01°)
1.10662378397766e+00	(-7.02440282744734e+01dB,8.99824710798087e+01°)
1.10917481526240e+00	(-7.02240282763496e+01dB,8.99824306714769e+01°)
1.11173172728159e+00	(-7.02040282782346e+01dB,8.99823901699944e+01°)
1.11429453359173e+00	(-7.01840282801282e+01dB,8.99823495751462e+01°)
1.11686324778056e+00	(-7.01640282820306e+01dB,8.99823088867174e+01°)
1.11943788346715e+00	(-7.01440282839417e+01dB,8.99822681044920e+01°)
1.12201845430196e+00	(-7.01240282858617e+01dB,8.99822272282539e+01°)
1.12460497396692e+00	(-7.01040282877905e+01dB,8.99821862577863e+01°)
1.12719745617551e+00	(-7.00840282897283e+01dB,8.99821451928721e+01°)
1.12979591467279e+00	(-7.00640282916750e+01dB,8.99821040332936e+01°)
1.13240036323555e+00	(-7.00440282936306e+01dB,8.99820627788323e+01°)
1.13501081567231e+00	(-7.00240282955953e+01dB,8.99820214292698e+01°)
1.13762728582343e+00	(-7.00040282975691e+01dB,8.99819799843867e+01°)
1.14024978756117e+00	(-6.99840282995520e+01dB,8.99819384439633e+01°)
1.14287833478977e+00	(-6.99640283015440e+01dB,8.99818968077793e+01°)
1.14551294144553e+00	(-6.99440283035452e+01dB,8.99818550756141e+01°)
1.14815362149688e+00	(-6.99240283055557e+01dB,8.99818132472463e+01°)
1.15080038894443e+00	(-6.99040283075754e+01dB,8.99817713224542e+01°)
1.15345325782109e+00	(-6.98840283096045e+01dB,8.99817293010154e+01°)
1.15611224219210e+00	(-6.98640283116429e+01dB,8.99816871827073e+01°)
1.15877735615512e+00	(-6.98440283136907e+01dB,8.99816449673064e+01°)
1.16144861384034e+00	(-6.98240283157480e+01dB,8.99816026545890e+01°)
1.16412602941049e+00	(-6.98040283178148e+01dB,8.99815602443308e+01°)
1.16680961706096e+00	(-6.97840283198911e+01dB,8.99815177363068e+01°)
1.16949939101987e+00	(-6.97640283219771e+01dB,8.99814751302917e+01°)
1.17219536554813e+00	(-6.97440283240726e+01dB,8.99814324260597e+01°)
1.17489755493953e+00	(-6.97240283261778e+01dB,8.99813896233842e+01°)
1.17760597352080e+00	(-6.97040283282927e+01dB,8.99813467220385e+01°)
1.18032063565173e+00	(-6.96840283304174e+01dB,8.99813037217949e+01°)
1.18304155572516e+00	(-6.96640283325519e+01dB,8.99812606224255e+01°)
1.18576874816716e+00	(-6.96440283346963e+01dB,8.99812174237019e+01°)
1.18850222743701e+00	(-6.96240283368505e+01dB,8.99811741253949e+01°)
1.19124200802737e+00	(-6.96040283390147e+01dB,8.99811307272750e+01°)
1.19398810446427e+00	(-6.95840283411889e+01dB,8.99810872291122e+01°)
1.19674053130724e+00	(-6.95640283433731e+01dB,8.99810436306758e+01°)
1.19949930314937e+00	(-6.95440283455674e+01dB,8.99809999317346e+01°)
1.20226443461741e+00	(-6.95240283477718e+01dB,8.99809561320569e+01°)
1.20503594037179e+00	(-6.95040283499864e+01dB,8.99809122314107e+01°)
1.20781383510677e+00	(-6.94840283522113e+01dB,8.99808682295630e+01°)
1.21059813355048e+00	(-6.94640283544463e+01dB,8.99808241262805e+01°)
1.21338885046497e+00	(-6.94440283566917e+01dB,8.99807799213296e+01°)
1.21618600064636e+00	(-6.94240283589475e+01dB,8.99807356144757e+01°)
1.21898959892486e+00	(-6.94040283612137e+01dB,8.99806912054840e+01°)
1.22179966016487e+00	(-6.93840283634904e+01dB,8.99806466941190e+01°)
1.22461619926504e+00	(-6.93640283657775e+01dB,8.99806020801448e+01°)
1.22743923115840e+00	(-6.93440283680752e+01dB,8.99805573633247e+01°)
1.23026877081238e+00	(-6.93240283703835e+01dB,8.99805125434218e+01°)
1.23310483322890e+00	(-6.93040283727025e+01dB,8.99804676201983e+01°)
1.23594743344450e+00	(-6.92840283750322e+01dB,8.99804225934161e+01°)
1.23879658653036e+00	(-6.92640283773726e+01dB,8.99803774628365e+01°)
1.24165230759240e+00	(-6.92440283797239e+01dB,8.99803322282202e+01°)
1.24451461177138e+00	(-6.92240283820859e+01dB,8.99802868893274e+01°)
1.24738351424294e+00	(-6.92040283844589e+01dB,8.99802414459176e+01°)
1.25025903021771e+00	(-6.91840283868429e+01dB,8.99801958977500e+01°)
1.25314117494141e+00	(-6.91640283892378e+01dB,8.99801502445831e+01°)
1.25602996369487e+00	(-6.91440283916438e+01dB,8.99801044861747e+01°)
1.25892541179416e+00	(-6.91240283940609e+01dB,8.99800586222824e+01°)
1.26182753459066e+00	(-6.91040283964892e+01dB,8.99800126526629e+01°)
1.26473634747114e+00	(-6.90840283989287e+01dB,8.99799665770724e+01°)
1.26765186585784e+00	(-6.90640284013794e+01dB,8.99799203952669e+01°)
1.27057410520853e+00	(-6.90440284038414e+01dB,8.99798741070013e+01°)
1.27350308101665e+00	(-6.90240284063148e+01dB,8.99798277120302e+01°)
1.27643880881134e+00	(-6.90040284087997e+01dB,8.99797812101077e+01°)
1.27938130415752e+00	(-6.89840284112959e+01dB,8.99797346009872e+01°)
1.28233058265601e+00	(-6.89640284138038e+01dB,8.99796878844217e+01°)
1.28528665994361e+00	(-6.89440284163231e+01dB,8.99796410601633e+01°)
1.28824955169313e+00	(-6.89240284188542e+01dB,8.99795941279639e+01°)
1.29121927361353e+00	(-6.89040284213969e+01dB,8.99795470875747e+01°)
1.29419584144998e+00	(-6.88840284239513e+01dB,8.99794999387462e+01°)
1.29717927098395e+00	(-6.88640284265175e+01dB,8.99794526812285e+01°)
1.30016957803328e+00	(-6.88440284290956e+01dB,8.99794053147709e+01°)
1.30316677845229e+00	(-6.88240284316856e+01dB,8.99793578391224e+01°)
1.30617088813183e+00	(-6.88040284342875e+01dB,8.99793102540313e+01°)
1.30918192299940e+00	(-6.87840284369015e+01dB,8.99792625592452e+01°)
1.31219989901919e+00	(-6.87640284395275e+01dB,8.99792147545113e+01°)
1.31522483219223e+00	(-6.87440284421656e+01dB,8.99791668395762e+01°)
1.31825673855640e+00	(-6.87240284448159e+01dB,8.99791188141858e+01°)
1.32129563418657e+00	(-6.87040284474784e+01dB,8.99790706780854e+01°)
1.32434153519466e+00	(-6.86840284501532e+01dB,8.99790224310199e+01°)
1.32739445772973e+00	(-6.86640284528404e+01dB,8.99789740727334e+01°)
1.33045441797808e+00	(-6.86440284555400e+01dB,8.99789256029696e+01°)
1.33352143216332e+00	(-6.86240284582520e+01dB,8.99788770214715e+01°)
1.33659551654643e+00	(-6.86040284609766e+01dB,8.99788283279815e+01°)
1.33967668742593e+00	(-6.85840284637137e+01dB,8.99787795222415e+01°)
1.34276496113785e+00	(-6.85640284664635e+01dB,8.99787306039926e+01°)
1.34586035405594e+00	(-6.85440284692259e+01dB,8.99786815729755e+01°)
1.34896288259164e+00	(-6.85240284720011e+01dB,8.99786324289304e+01°)
1.35207256319427e+00	(-6.85040284747892e+01dB,8.99785831715965e+01°)
1.35518941235103e+00	(-6.84840284775901e+01dB,8.99785338007128e+01°)
1.35831344658714e+00	(-6.84640284804039e+01dB,8.99784843160174e+01°)
1.36144468246594e+00	(-6.84440284832307e+01dB,8.99784347172481e+01°)
1.36458313658891e+00	(-6.84240284860705e+01dB,8.99783850041418e+01°)
1.36772882559584e+00	(-6.84040284889235e+01dB,8.99783351764351e+01°)
1.37088176616484e+00	(-6.83840284917896e+01dB,8.99782852338636e+01°)
1.37404197501251e+00	(-6.83640284946690e+01dB,8.99782351761627e+01°)
1.37720946889394e+00	(-6.83440284975616e+01dB,8.99781850030669e+01°)
1.38038426460287e+00	(-6.83240285004676e+01dB,8.99781347143101e+01°)
1.38356637897177e+00	(-6.83040285033870e+01dB,8.99780843096259e+01°)
1.38675582887188e+00	(-6.82840285063199e+01dB,8.99780337887469e+01°)
1.38995263121334e+00	(-6.82640285092663e+01dB,8.99779831514053e+01°)
1.39315680294529e+00	(-6.82440285122264e+01dB,8.99779323973325e+01°)
1.39636836105593e+00	(-6.82240285152000e+01dB,8.99778815262596e+01°)
1.39958732257261e+00	(-6.82040285181875e+01dB,8.99778305379168e+01°)
1.40281370456195e+00	(-6.81840285211887e+01dB,8.99777794320338e+01°)
1.40604752412990e+00	(-6.81640285242037e+01dB,8.99777282083395e+01°)
1.40928879842186e+00	(-6.81440285272327e+01dB,8.99776768665625e+01°)
1.41253754462274e+00	(-6.81240285302757e+01dB,8.99776254064305e+01°)
1.41579377995707e+00	(-6.81040285333327e+01dB,8.99775738276707e+01°)
1.41905752168908e+00	(-6.80840285364038e+01dB,8.99775221300096e+01°)
1.42232878712281e+00	(-6.80640285394891e+01dB,8.99774703131731e+01°)
1.42560759360218e+00	(-6.80440285425886e+01dB,8.99774183768866e+01°)
1.42889395851109e+00	(-6.80240285457024e+01dB,8.99773663208745e+01°)
1.43218789927353e+00	(-6.80040285488306e+01dB,8.99773141448610e+01°)
1.43548943335364e+00	(-6.79840285519733e+01dB,8.99772618485694e+01°)
1.43879857825583e+00	(-6.79640285551304e+01dB,8.99772094317224e+01°)
1.44211535152486e+00	(-6.79440285583022e+01dB,8.99771568940422e+01°)
1.44543977074592e+00	(-6.79240285614885e+01dB,8.99771042352501e+01°)
1.44877185354475e+00	(-6.79040285646896e+01dB,8.99770514550670e+01°)
1.45211161758773e+00	(-6.78840285679054e+01dB,8.99769985532131e+01°)
1.45545908058195e+00	(-6.78640285711361e+01dB,8.99769455294078e+01°)
1.45881426027534e+00	(-6.78440285743817e+01dB,8.99768923833701e+01°)
1.46217717445671e+00	(-6.78240285776423e+01dB,8.99768391148181e+01°)
1.46554784095590e+00	(-6.78040285809179e+01dB,8.99767857234695e+01°)
1.46892627764385e+00	(-6.77840285842087e+01dB,8.99767322090412e+01°)
1.47231250243271e+00	(-6.77640285875146e+01dB,8.99766785712494e+01°)
1.47570653327588e+00	(-6.77440285908358e+01dB,8.99766248098098e+01°)
1.47910838816819e+00	(-6.77240285941724e+01dB,8.99765709244373e+01°)
1.48251808514594e+00	(-6.77040285975243e+01dB,8.99765169148462e+01°)
1.48593564228699e+00	(-6.76840286008917e+01dB,8.99764627807502e+01°)
1.48936107771090e+00	(-6.76640286042747e+01dB,8.99764085218623e+01°)
1.49279440957898e+00	(-6.76440286076732e+01dB,8.99763541378947e+01°)
1.49623565609442e+00	(-6.76240286110875e+01dB,8.99762996285592e+01°)
1.49968483550236e+00	(-6.76040286145175e+01dB,8.99762449935668e+01°)
1.50314196609001e+00	(-6.75840286179633e+01dB,8.99761902326277e+01°)
1.50660706618673e+00	(-6.75640286214251e+01dB,8.99761353454517e+01°)
1.51008015416413e+00	(-6.75440286249028e+01dB,8.99760803317477e+01°)
1.51356124843619e+00	(-6.75240286283966e+01dB,8.99760251912240e+01°)
1.51705036745932e+00	(-6.75040286319065e+01dB,8.99759699235884e+01°)
1.52054752973248e+00	(-6.74840286354326e+01dB,8.99759145285478e+01°)
1.52405275379728e+00	(-6.74640286389750e+01dB,8.99758590058084e+01°)
1.52756605823806e+00	(-6.74440286425337e+01dB,8.99758033550760e+01°)
1.53108746168201e+00	(-6.74240286461089e+01dB,8.99757475760554e+01°)
1.53461698279928e+00	(-6.74040286497005e+01dB,8.99756916684509e+01°)
1.53815464030302e+00	(-6.73840286533088e+01dB,8.99756356319662e+01°)
1.54170045294954e+00	(-6.73640286569337e+01dB,8.99755794663041e+01°)
1.54525443953840e+00	(-6.73440286605753e+01dB,8.99755231711667e+01°)
1.54881661891247e+00	(-6.73240286642337e+01dB,8.99754667462558e+01°)
1.55238700995807e+00	(-6.73040286679091e+01dB,8.99754101912720e+01°)
1.55596563160506e+00	(-6.72840286716013e+01dB,8.99753535059156e+01°)
1.55955250282694e+00	(-6.72640286753107e+01dB,8.99752966898860e+01°)
1.56314764264094e+00	(-6.72440286790371e+01dB,8.99752397428819e+01°)
1.56675107010813e+00	(-6.72240286827808e+01dB,8.99751826646015e+01°)
1.57036280433354e+00	(-6.72040286865417e+01dB,8.99751254547421e+01°)
1.57398286446620e+00	(-6.71840286903200e+01dB,8.99750681130005e+01°)
1.57761126969933e+00	(-6.71640286941157e+01dB,8.99750106390725e+01°)
1.58124803927037e+00	(-6.71440286979290e+01dB,8.99749530326535e+01°)
1.58489319246110e+00	(-6.71240287017598e+01dB,8.99748952934380e+01°)
1.58854674859776e+00	(-6.71040287056084e+01dB,8.99748374211199e+01°)
1.59220872705115e+00	(-6.70840287094747e+01dB,8.99747794153924e+01°)
1.59587914723672e+00	(-6.70640287133588e+01dB,8.99747212759480e+01°)
1.59955802861465e+00	(-6.70440287172609e+01dB,8.99746630024783e+01°)
1.60324539069002e+00	(-6.70240287211810e+01dB,8.99746045946745e+01°)
1.60694125301286e+00	(-6.70040287251192e+01dB,8.99745460522268e+01°)
1.61064563517825e+00	(-6.69840287290755e+01dB,8.99744873748249e+01°)
1.61435855682647e+00	(-6.69640287330501e+01dB,8.99744285621577e+01°)
1.61808003764305e+00	(-6.69440287370431e+01dB,8.99743696139134e+01°)
1.62181009735891e+00	(-6.69240287410545e+01dB,8.99743105297793e+01°)
1.62554875575047e+00	(-6.69040287450844e+01dB,8.99742513094423e+01°)
1.62929603263970e+00	(-6.68840287491329e+01dB,8.99741919525884e+01°)
1.63305194789432e+00	(-6.68640287532001e+01dB,8.99741324589029e+01°)
1.63681652142779e+00	(-6.68440287572861e+01dB,8.99740728280703e+01°)
1.64058977319952e+00	(-6.68240287613909e+01dB,8.99740130597745e+01°)
1.64437172321491e+00	(-6.68040287655147e+01dB,8.99739531536986e+01°)
1.64816239152549e+00	(-6.67840287696575e+01dB,8.99738931095250e+01°)
1.65196179822900e+00	(-6.67640287738194e+01dB,8.99738329269353e+01°)
1.65576996346951e+00	(-6.67440287780006e+01dB,8.99737726056105e+01°)
1.65958690743754e+00	(-6.67240287822010e+01dB,8.99737121452308e+01°)
1.66341265037015e+00	(-6.67040287864209e+01dB,8.99736515454755e+01°)
1.66724721255104e+00	(-6.66840287906602e+01dB,8.99735908060234e+01°)
1.67109061431069e+00	(-6.66640287949191e+01dB,8.99735299265525e+01°)
1.67494287602642e+00	(-6.66440287991976e+01dB,8.99734689067400e+01°)
1.67880401812254e+00	(-6.66240288034959e+01dB,8.99734077462624e+01°)
1.68267406107045e+00	(-6.66040288078140e+01dB,8.99733464447953e+01°)
1.68655302538872e+00	(-6.65840288121521e+01dB,8.99732850020138e+01°)
1.69044093164324e+00	(-6.65640288165102e+01dB,8.99732234175922e+01°)
1.69433780044731e+00	(-6.65440288208884e+01dB,8.99731616912038e+01°)
1.69824365246172e+00	(-6.65240288252868e+01dB,8.99730998225215e+01°)
1.70215850839493e+00	(-6.65040288297055e+01dB,8.99730378112172e+01°)
1.70608238900310e+00	(-6.64840288341446e+01dB,8.99729756569622e+01°)
1.71001531509027e+00	(-6.64640288386042e+01dB,8.99729133594269e+01°)
1.71395730750840e+00	(-6.64440288430844e+01dB,8.99728509182810e+01°)
1.71790838715757e+00	(-6.64240288475852e+01dB,8.99727883331934e+01°)
1.72186857498599e+00	(-6.64040288521068e+01dB,8.99727256038324e+01°)
1.72583789199018e+00	(-6.63840288566493e+01dB,8.99726627298653e+01°)
1.72981635921508e+00	(-6.63640288612128e+01dB,8.99725997109588e+01°)
1.73380399775412e+00	(-6.63440288657974e+01dB,8.99725365467789e+01°)
1.73780082874935e+00	(-6.63240288704031e+01dB,8.99724732369905e+01°)
1.74180687339159e+00	(-6.63040288750300e+01dB,8.99724097812580e+01°)
1.74582215292048e+00	(-6.62840288796783e+01dB,8.99723461792451e+01°)
1.74984668862463e+00	(-6.62640288843481e+01dB,8.99722824306144e+01°)
1.75388050184174e+00	(-6.62440288890394e+01dB,8.99722185350280e+01°)
1.75792361395867e+00	(-6.62240288937524e+01dB,8.99721544921472e+01°)
1.76197604641161e+00	(-6.62040288984871e+01dB,8.99720903016323e+01°)
1.76603782068614e+00	(-6.61840289032437e+01dB,8.99720259631431e+01°)
1.77010895831740e+00	(-6.61640289080223e+01dB,8.99719614763384e+01°)
1.77418948089014e+00	(-6.61440289128228e+01dB,8.99718968408764e+01°)
1.77827941003890e+00	(-6.61240289176456e+01dB,8.99718320564143e+01°)
1.78237876744807e+00	(-6.61040289224906e+01dB,8.99717671226087e+01°)
1.78648757485203e+00	(-6.60840289273580e+01dB,8.99717020391153e+01°)
1.79060585403527e+00	(-6.60640289322479e+01dB,8.99716368055889e+01°)
1.79473362683250e+00	(-6.60440289371603e+01dB,8.99715714216839e+01°)
1.79887091512876e+00	(-6.60240289420954e+01dB,8.99715058870534e+01°)
1.80301774085954e+00	(-6.60040289470532e+01dB,8.99714402013501e+01°)
1.80717412601090e+00	(-6.59840289520340e+01dB,8.99713743642258e+01°)
1.81134009261958e+00	(-6.59640289570377e+01dB,8.99713083753312e+01°)
1.81551566277311e+00	(-6.59440289620646e+01dB,8.99712422343166e+01°)
1.81970085860996e+00	(-6.59240289671146e+01dB,8.99711759408313e+01°)
1.82389570231961e+00	(-6.59040289721880e+01dB,8.99711094945237e+01°)
1.82810021614272e+00	(-6.58840289772848e+01dB,8.99710428950418e+01°)
1.83231442237119e+00	(-6.58640289824051e+01dB,8.99709761420322e+01°)
1.83653834334832e+00	(-6.58440289875490e+01dB,8.99709092351411e+01°)
1.84077200146893e+00	(-6.58240289927167e+01dB,8.99708421740138e+01°)
1.84501541917945e+00	(-6.58040289979082e+01dB,8.99707749582947e+01°)
1.84926861897805e+00	(-6.57840290031237e+01dB,8.99707075876275e+01°)
1.85353162341478e+00	(-6.57640290083633e+01dB,8.99706400616549e+01°)
1.85780445509167e+00	(-6.57440290136270e+01dB,8.99705723800190e+01°)
1.86208713666284e+00	(-6.57240290189151e+01dB,8.99705045423608e+01°)
1.86637969083464e+00	(-6.57040290242275e+01dB,8.99704365483208e+01°)
1.87068214036577e+00	(-6.56840290295645e+01dB,8.99703683975384e+01°)
1.87499450806739e+00	(-6.56640290349261e+01dB,8.99703000896523e+01°)
1.87931681680324e+00	(-6.56440290403125e+01dB,8.99702316243004e+01°)
1.88364908948977e+00	(-6.56240290457237e+01dB,8.99701630011196e+01°)
1.88799134909627e+00	(-6.56040290511599e+01dB,8.99700942197461e+01°)
1.89234361864495e+00	(-6.55840290566212e+01dB,8.99700252798153e+01°)
1.89670592121112e+00	(-6.55640290621077e+01dB,8.99699561809616e+01°)
1.90107827992327e+00	(-6.55440290676195e+01dB,8.99698869228187e+01°)
1.90546071796322e+00	(-6.55240290731568e+01dB,8.99698175050193e+01°)
1.90985325856621e+00	(-6.55040290787196e+01dB,8.99697479271956e+01°)
1.91425592502106e+00	(-6.54840290843081e+01dB,8.99696781889784e+01°)
1.91866874067026e+00	(-6.54640290899224e+01dB,8.99696082899981e+01°)
1.92309172891013e+00	(-6.54440290955626e+01dB,8.99695382298842e+01°)
