Freq.	V(n003)
1.00000000000000e+00	(1.39793990065692e+01dB,-3.23999976976190e-02°)
1.00230523807790e+00	(1.39793990015834e+01dB,-3.24746873953836e-02°)
1.00461579027839e+00	(1.39793989965747e+01dB,-3.25495492706097e-02°)
1.00693166885180e+00	(1.39793989915428e+01dB,-3.26245837202068e-02°)
1.00925288607668e+00	(1.39793989864877e+01dB,-3.26997911419994e-02°)
1.01157945425990e+00	(1.39793989814092e+01dB,-3.27751719347291e-02°)
1.01391138573668e+00	(1.39793989763074e+01dB,-3.28507264980566e-02°)
1.01624869287070e+00	(1.39793989711819e+01dB,-3.29264552325640e-02°)
1.01859138805412e+00	(1.39793989660328e+01dB,-3.30023585397569e-02°)
1.02093948370768e+00	(1.39793989608600e+01dB,-3.30784368220662e-02°)
1.02329299228075e+00	(1.39793989556632e+01dB,-3.31546904828508e-02°)
1.02565192625141e+00	(1.39793989504425e+01dB,-3.32311199263992e-02°)
1.02801629812647e+00	(1.39793989451977e+01dB,-3.33077255579321e-02°)
1.03038612044162e+00	(1.39793989399287e+01dB,-3.33845077836041e-02°)
1.03276140576140e+00	(1.39793989346353e+01dB,-3.34614670105061e-02°)
1.03514216667934e+00	(1.39793989293175e+01dB,-3.35386036466677e-02°)
1.03752841581801e+00	(1.39793989239752e+01dB,-3.36159181010589e-02°)
1.03992016582906e+00	(1.39793989186082e+01dB,-3.36934107835924e-02°)
1.04231742939330e+00	(1.39793989132165e+01dB,-3.37710821051260e-02°)
1.04472021922080e+00	(1.39793989077998e+01dB,-3.38489324774645e-02°)
1.04712854805090e+00	(1.39793989023582e+01dB,-3.39269623133621e-02°)
1.04954242865232e+00	(1.39793988968914e+01dB,-3.40051720265244e-02°)
1.05196187382322e+00	(1.39793988913994e+01dB,-3.40835620316108e-02°)
1.05438689639126e+00	(1.39793988858821e+01dB,-3.41621327442365e-02°)
1.05681750921366e+00	(1.39793988803392e+01dB,-3.42408845809748e-02°)
1.05925372517729e+00	(1.39793988747708e+01dB,-3.43198179593592e-02°)
1.06169555719872e+00	(1.39793988691767e+01dB,-3.43989332978860e-02°)
1.06414301822431e+00	(1.39793988635568e+01dB,-3.44782310160160e-02°)
1.06659612123026e+00	(1.39793988579109e+01dB,-3.45577115341770e-02°)
1.06905487922266e+00	(1.39793988522390e+01dB,-3.46373752737658e-02°)
1.07151930523760e+00	(1.39793988465409e+01dB,-3.47172226571510e-02°)
1.07398941234124e+00	(1.39793988408165e+01dB,-3.47972541076746e-02°)
1.07646521362983e+00	(1.39793988350657e+01dB,-3.48774700496546e-02°)
1.07894672222983e+00	(1.39793988292883e+01dB,-3.49578709083870e-02°)
1.08143395129794e+00	(1.39793988234843e+01dB,-3.50384571101483e-02°)
1.08392691402120e+00	(1.39793988176534e+01dB,-3.51192290821977e-02°)
1.08642562361706e+00	(1.39793988117957e+01dB,-3.52001872527794e-02°)
1.08893009333343e+00	(1.39793988059109e+01dB,-3.52813320511246e-02°)
1.09144033644875e+00	(1.39793987999989e+01dB,-3.53626639074540e-02°)
1.09395636627209e+00	(1.39793987940597e+01dB,-3.54441832529803e-02°)
1.09647819614318e+00	(1.39793987880931e+01dB,-3.55258905199100e-02°)
1.09900583943252e+00	(1.39793987820989e+01dB,-3.56077861414460e-02°)
1.10153930954141e+00	(1.39793987760770e+01dB,-3.56898705517898e-02°)
1.10407861990207e+00	(1.39793987700274e+01dB,-3.57721441861439e-02°)
1.10662378397766e+00	(1.39793987639498e+01dB,-3.58546074807141e-02°)
1.10917481526240e+00	(1.39793987578441e+01dB,-3.59372608727116e-02°)
1.11173172728159e+00	(1.39793987517103e+01dB,-3.60201048003555e-02°)
1.11429453359173e+00	(1.39793987455482e+01dB,-3.61031397028752e-02°)
1.11686324778056e+00	(1.39793987393576e+01dB,-3.61863660205125e-02°)
1.11943788346715e+00	(1.39793987331385e+01dB,-3.62697841945242e-02°)
1.12201845430196e+00	(1.39793987268906e+01dB,-3.63533946671841e-02°)
1.12460497396692e+00	(1.39793987206140e+01dB,-3.64371978817857e-02°)
1.12719745617551e+00	(1.39793987143083e+01dB,-3.65211942826444e-02°)
1.12979591467279e+00	(1.39793987079735e+01dB,-3.66053843150997e-02°)
1.13240036323555e+00	(1.39793987016095e+01dB,-3.66897684255179e-02°)
1.13501081567231e+00	(1.39793986952161e+01dB,-3.67743470612941e-02°)
1.13762728582343e+00	(1.39793986887933e+01dB,-3.68591206708549e-02°)
1.14024978756117e+00	(1.39793986823407e+01dB,-3.69440897036605e-02°)
1.14287833478977e+00	(1.39793986758584e+01dB,-3.70292546102072e-02°)
1.14551294144553e+00	(1.39793986693462e+01dB,-3.71146158420299e-02°)
1.14815362149688e+00	(1.39793986628039e+01dB,-3.72001738517044e-02°)
1.15080038894443e+00	(1.39793986562314e+01dB,-3.72859290928497e-02°)
1.15345325782109e+00	(1.39793986496285e+01dB,-3.73718820201305e-02°)
1.15611224219210e+00	(1.39793986429952e+01dB,-3.74580330892596e-02°)
1.15877735615512e+00	(1.39793986363313e+01dB,-3.75443827570005e-02°)
1.16144861384034e+00	(1.39793986296366e+01dB,-3.76309314811693e-02°)
1.16412602941049e+00	(1.39793986229110e+01dB,-3.77176797206378e-02°)
1.16680961706096e+00	(1.39793986161544e+01dB,-3.78046279353354e-02°)
1.16949939101987e+00	(1.39793986093665e+01dB,-3.78917765862519e-02°)
1.17219536554813e+00	(1.39793986025474e+01dB,-3.79791261354396e-02°)
1.17489755493953e+00	(1.39793985956967e+01dB,-3.80666770460161e-02°)
1.17760597352080e+00	(1.39793985888145e+01dB,-3.81544297821665e-02°)
1.18032063565173e+00	(1.39793985819005e+01dB,-3.82423848091459e-02°)
1.18304155572516e+00	(1.39793985749545e+01dB,-3.83305425932821e-02°)
1.18576874816716e+00	(1.39793985679766e+01dB,-3.84189036019778e-02°)
1.18850222743701e+00	(1.39793985609664e+01dB,-3.85074683037130e-02°)
1.19124200802737e+00	(1.39793985539238e+01dB,-3.85962371680480e-02°)
1.19398810446427e+00	(1.39793985468487e+01dB,-3.86852106656252e-02°)
1.19674053130724e+00	(1.39793985397410e+01dB,-3.87743892681721e-02°)
1.19949930314937e+00	(1.39793985326005e+01dB,-3.88637734485036e-02°)
1.20226443461741e+00	(1.39793985254270e+01dB,-3.89533636805247e-02°)
1.20503594037179e+00	(1.39793985182204e+01dB,-3.90431604392326e-02°)
1.20781383510677e+00	(1.39793985109805e+01dB,-3.91331642007197e-02°)
1.21059813355048e+00	(1.39793985037072e+01dB,-3.92233754421756e-02°)
1.21338885046497e+00	(1.39793984964004e+01dB,-3.93137946418904e-02°)
1.21618600064636e+00	(1.39793984890598e+01dB,-3.94044222792563e-02°)
1.21898959892486e+00	(1.39793984816853e+01dB,-3.94952588347708e-02°)
1.22179966016487e+00	(1.39793984742768e+01dB,-3.95863047900392e-02°)
1.22461619926504e+00	(1.39793984668341e+01dB,-3.96775606277767e-02°)
1.22743923115840e+00	(1.39793984593571e+01dB,-3.97690268318116e-02°)
1.23026877081238e+00	(1.39793984518455e+01dB,-3.98607038870873e-02°)
1.23310483322890e+00	(1.39793984442993e+01dB,-3.99525922796651e-02°)
1.23594743344450e+00	(1.39793984367182e+01dB,-4.00446924967269e-02°)
1.23879658653036e+00	(1.39793984291021e+01dB,-4.01370050265776e-02°)
1.24165230759240e+00	(1.39793984214509e+01dB,-4.02295303586478e-02°)
1.24451461177138e+00	(1.39793984137644e+01dB,-4.03222689834963e-02°)
1.24738351424294e+00	(1.39793984060424e+01dB,-4.04152213928128e-02°)
1.25025903021771e+00	(1.39793983982847e+01dB,-4.05083880794203e-02°)
1.25314117494141e+00	(1.39793983904912e+01dB,-4.06017695372781e-02°)
1.25602996369487e+00	(1.39793983826618e+01dB,-4.06953662614840e-02°)
1.25892541179416e+00	(1.39793983747962e+01dB,-4.07891787482772e-02°)
1.26182753459066e+00	(1.39793983668944e+01dB,-4.08832074950408e-02°)
1.26473634747114e+00	(1.39793983589560e+01dB,-4.09774530003046e-02°)
1.26765186585784e+00	(1.39793983509810e+01dB,-4.10719157637475e-02°)
1.27057410520853e+00	(1.39793983429692e+01dB,-4.11665962862002e-02°)
1.27350308101665e+00	(1.39793983349204e+01dB,-4.12614950696481e-02°)
1.27643880881134e+00	(1.39793983268345e+01dB,-4.13566126172337e-02°)
1.27938130415752e+00	(1.39793983187112e+01dB,-4.14519494332593e-02°)
1.28233058265601e+00	(1.39793983105504e+01dB,-4.15475060231900e-02°)
1.28528665994361e+00	(1.39793983023520e+01dB,-4.16432828936557e-02°)
1.28824955169313e+00	(1.39793982941158e+01dB,-4.17392805524545e-02°)
1.29121927361353e+00	(1.39793982858415e+01dB,-4.18354995085550e-02°)
1.29419584144998e+00	(1.39793982775290e+01dB,-4.19319402720991e-02°)
1.29717927098395e+00	(1.39793982691781e+01dB,-4.20286033544046e-02°)
1.30016957803328e+00	(1.39793982607888e+01dB,-4.21254892679681e-02°)
1.30316677845229e+00	(1.39793982523606e+01dB,-4.22225985264676e-02°)
1.30617088813183e+00	(1.39793982438936e+01dB,-4.23199316447652e-02°)
1.30918192299940e+00	(1.39793982353875e+01dB,-4.24174891389100e-02°)
1.31219989901919e+00	(1.39793982268422e+01dB,-4.25152715261405e-02°)
1.31522483219223e+00	(1.39793982182574e+01dB,-4.26132793248878e-02°)
1.31825673855640e+00	(1.39793982096329e+01dB,-4.27115130547778e-02°)
1.32129563418657e+00	(1.39793982009687e+01dB,-4.28099732366345e-02°)
1.32434153519466e+00	(1.39793981922644e+01dB,-4.29086603924824e-02°)
1.32739445772973e+00	(1.39793981835200e+01dB,-4.30075750455495e-02°)
1.33045441797808e+00	(1.39793981747353e+01dB,-4.31067177202698e-02°)
1.33352143216332e+00	(1.39793981659099e+01dB,-4.32060889422863e-02°)
1.33659551654643e+00	(1.39793981570439e+01dB,-4.33056892384538e-02°)
1.33967668742593e+00	(1.39793981481369e+01dB,-4.34055191368415e-02°)
1.34276496113785e+00	(1.39793981391888e+01dB,-4.35055791667359e-02°)
1.34586035405594e+00	(1.39793981301994e+01dB,-4.36058698586438e-02°)
1.34896288259164e+00	(1.39793981211685e+01dB,-4.37063917442949e-02°)
1.35207256319427e+00	(1.39793981120960e+01dB,-4.38071453566443e-02°)
1.35518941235103e+00	(1.39793981029815e+01dB,-4.39081312298762e-02°)
1.35831344658714e+00	(1.39793980938250e+01dB,-4.40093498994059e-02°)
1.36144468246594e+00	(1.39793980846262e+01dB,-4.41108019018831e-02°)
1.36458313658891e+00	(1.39793980753850e+01dB,-4.42124877751944e-02°)
1.36772882559584e+00	(1.39793980661011e+01dB,-4.43144080584664e-02°)
1.37088176616484e+00	(1.39793980567743e+01dB,-4.44165632920689e-02°)
1.37404197501251e+00	(1.39793980474045e+01dB,-4.45189540176167e-02°)
1.37720946889394e+00	(1.39793980379914e+01dB,-4.46215807779737e-02°)
1.38038426460287e+00	(1.39793980285350e+01dB,-4.47244441172550e-02°)
1.38356637897177e+00	(1.39793980190348e+01dB,-4.48275445808299e-02°)
1.38675582887188e+00	(1.39793980094908e+01dB,-4.49308827153250e-02°)
1.38995263121334e+00	(1.39793979999027e+01dB,-4.50344590686272e-02°)
1.39315680294529e+00	(1.39793979902704e+01dB,-4.51382741898861e-02°)
1.39636836105593e+00	(1.39793979805937e+01dB,-4.52423286295172e-02°)
1.39958732257261e+00	(1.39793979708722e+01dB,-4.53466229392051e-02°)
1.40281370456195e+00	(1.39793979611059e+01dB,-4.54511576719060e-02°)
1.40604752412990e+00	(1.39793979512945e+01dB,-4.55559333818508e-02°)
1.40928879842186e+00	(1.39793979414379e+01dB,-4.56609506245480e-02°)
1.41253754462274e+00	(1.39793979315357e+01dB,-4.57662099567866e-02°)
1.41579377995707e+00	(1.39793979215878e+01dB,-4.58717119366392e-02°)
1.41905752168908e+00	(1.39793979115940e+01dB,-4.59774571234651e-02°)
1.42232878712281e+00	(1.39793979015541e+01dB,-4.60834460779126e-02°)
1.42560759360218e+00	(1.39793978914678e+01dB,-4.61896793619228e-02°)
1.42889395851109e+00	(1.39793978813350e+01dB,-4.62961575387319e-02°)
1.43218789927353e+00	(1.39793978711554e+01dB,-4.64028811728748e-02°)
1.43548943335364e+00	(1.39793978609288e+01dB,-4.65098508301875e-02°)
1.43879857825583e+00	(1.39793978506550e+01dB,-4.66170670778105e-02°)
1.44211535152486e+00	(1.39793978403338e+01dB,-4.67245304841917e-02°)
1.44543977074592e+00	(1.39793978299650e+01dB,-4.68322416190894e-02°)
1.44877185354475e+00	(1.39793978195483e+01dB,-4.69402010535752e-02°)
1.45211161758773e+00	(1.39793978090835e+01dB,-4.70484093600372e-02°)
1.45545908058195e+00	(1.39793977985704e+01dB,-4.71568671121831e-02°)
1.45881426027534e+00	(1.39793977880088e+01dB,-4.72655748850431e-02°)
1.46217717445671e+00	(1.39793977773984e+01dB,-4.73745332549728e-02°)
1.46554784095590e+00	(1.39793977667391e+01dB,-4.74837427996565e-02°)
1.46892627764385e+00	(1.39793977560305e+01dB,-4.75932040981103e-02°)
1.47231250243271e+00	(1.39793977452726e+01dB,-4.77029177306849e-02°)
1.47570653327588e+00	(1.39793977344649e+01dB,-4.78128842790689e-02°)
1.47910838816819e+00	(1.39793977236074e+01dB,-4.79231043262920e-02°)
1.48251808514594e+00	(1.39793977126998e+01dB,-4.80335784567276e-02°)
1.48593564228699e+00	(1.39793977017418e+01dB,-4.81443072560963e-02°)
1.48936107771090e+00	(1.39793976907332e+01dB,-4.82552913114691e-02°)
1.49279440957898e+00	(1.39793976796739e+01dB,-4.83665312112701e-02°)
1.49623565609442e+00	(1.39793976685634e+01dB,-4.84780275452800e-02°)
1.49968483550236e+00	(1.39793976574017e+01dB,-4.85897809046390e-02°)
1.50314196609001e+00	(1.39793976461885e+01dB,-4.87017918818500e-02°)
1.50660706618673e+00	(1.39793976349235e+01dB,-4.88140610707818e-02°)
1.51008015416413e+00	(1.39793976236066e+01dB,-4.89265890666721e-02°)
1.51356124843619e+00	(1.39793976122373e+01dB,-4.90393764661309e-02°)
1.51705036745932e+00	(1.39793976008157e+01dB,-4.91524238671434e-02°)
1.52054752973248e+00	(1.39793975893413e+01dB,-4.92657318690732e-02°)
1.52405275379728e+00	(1.39793975778139e+01dB,-4.93793010726659e-02°)
1.52756605823806e+00	(1.39793975662333e+01dB,-4.94931320800516e-02°)
1.53108746168201e+00	(1.39793975545993e+01dB,-4.96072254947486e-02°)
1.53461698279928e+00	(1.39793975429115e+01dB,-4.97215819216664e-02°)
1.53815464030302e+00	(1.39793975311698e+01dB,-4.98362019671089e-02°)
1.54170045294954e+00	(1.39793975193740e+01dB,-4.99510862387779e-02°)
1.54525443953840e+00	(1.39793975075236e+01dB,-5.00662353457758e-02°)
1.54881661891247e+00	(1.39793974956186e+01dB,-5.01816498986092e-02°)
1.55238700995807e+00	(1.39793974836586e+01dB,-5.02973305091921e-02°)
1.55596563160506e+00	(1.39793974716434e+01dB,-5.04132777908491e-02°)
1.55955250282694e+00	(1.39793974595728e+01dB,-5.05294923583185e-02°)
1.56314764264094e+00	(1.39793974474464e+01dB,-5.06459748277560e-02°)
1.56675107010813e+00	(1.39793974352641e+01dB,-5.07627258167374e-02°)
1.57036280433354e+00	(1.39793974230255e+01dB,-5.08797459442621e-02°)
1.57398286446620e+00	(1.39793974107305e+01dB,-5.09970358307568e-02°)
1.57761126969933e+00	(1.39793973983787e+01dB,-5.11145960980780e-02°)
1.58124803927037e+00	(1.39793973859699e+01dB,-5.12324273695160e-02°)
1.58489319246110e+00	(1.39793973735038e+01dB,-5.13505302697978e-02°)
1.58854674859776e+00	(1.39793973609801e+01dB,-5.14689054250905e-02°)
1.59220872705115e+00	(1.39793973483987e+01dB,-5.15875534630047e-02°)
1.59587914723672e+00	(1.39793973357592e+01dB,-5.17064750125978e-02°)
1.59955802861465e+00	(1.39793973230613e+01dB,-5.18256707043773e-02°)
1.60324539069002e+00	(1.39793973103049e+01dB,-5.19451411703040e-02°)
1.60694125301286e+00	(1.39793972974895e+01dB,-5.20648870437959e-02°)
1.61064563517825e+00	(1.39793972846150e+01dB,-5.21849089597307e-02°)
1.61435855682647e+00	(1.39793972716811e+01dB,-5.23052075544500e-02°)
1.61808003764305e+00	(1.39793972586874e+01dB,-5.24257834657620e-02°)
1.62181009735891e+00	(1.39793972456338e+01dB,-5.25466373329454e-02°)
1.62554875575047e+00	(1.39793972325200e+01dB,-5.26677697967525e-02°)
1.62929603263970e+00	(1.39793972193456e+01dB,-5.27891814994126e-02°)
1.63305194789432e+00	(1.39793972061104e+01dB,-5.29108730846357e-02°)
1.63681652142779e+00	(1.39793971928141e+01dB,-5.30328451976155e-02°)
1.64058977319952e+00	(1.39793971794565e+01dB,-5.31550984850330e-02°)
1.64437172321491e+00	(1.39793971660371e+01dB,-5.32776335950600e-02°)
1.64816239152549e+00	(1.39793971525559e+01dB,-5.34004511773625e-02°)
1.65196179822900e+00	(1.39793971390124e+01dB,-5.35235518831040e-02°)
1.65576996346951e+00	(1.39793971254064e+01dB,-5.36469363649493e-02°)
1.65958690743754e+00	(1.39793971117376e+01dB,-5.37706052770675e-02°)
1.66341265037015e+00	(1.39793970980057e+01dB,-5.38945592751358e-02°)
1.66724721255104e+00	(1.39793970842104e+01dB,-5.40187990163428e-02°)
1.67109061431069e+00	(1.39793970703515e+01dB,-5.41433251593923e-02°)
1.67494287602642e+00	(1.39793970564286e+01dB,-5.42681383645062e-02°)
1.67880401812254e+00	(1.39793970424414e+01dB,-5.43932392934286e-02°)
1.68267406107045e+00	(1.39793970283896e+01dB,-5.45186286094290e-02°)
1.68655302538872e+00	(1.39793970142730e+01dB,-5.46443069773059e-02°)
1.69044093164324e+00	(1.39793970000913e+01dB,-5.47702750633901e-02°)
1.69433780044731e+00	(1.39793969858440e+01dB,-5.48965335355488e-02°)
1.69824365246172e+00	(1.39793969715310e+01dB,-5.50230830631885e-02°)
1.70215850839493e+00	(1.39793969571520e+01dB,-5.51499243172590e-02°)
1.70608238900310e+00	(1.39793969427066e+01dB,-5.52770579702566e-02°)
1.71001531509027e+00	(1.39793969281945e+01dB,-5.54044846962279e-02°)
1.71395730750840e+00	(1.39793969136154e+01dB,-5.55322051707733e-02°)
1.71790838715757e+00	(1.39793968989690e+01dB,-5.56602200710509e-02°)
1.72186857498599e+00	(1.39793968842550e+01dB,-5.57885300757793e-02°)
1.72583789199018e+00	(1.39793968694731e+01dB,-5.59171358652420e-02°)
1.72981635921508e+00	(1.39793968546230e+01dB,-5.60460381212908e-02°)
1.73380399775412e+00	(1.39793968397043e+01dB,-5.61752375273490e-02°)
1.73780082874935e+00	(1.39793968247167e+01dB,-5.63047347684155e-02°)
1.74180687339159e+00	(1.39793968096600e+01dB,-5.64345305310682e-02°)
1.74582215292048e+00	(1.39793967945338e+01dB,-5.65646255034679e-02°)
1.74984668862463e+00	(1.39793967793378e+01dB,-5.66950203753616e-02°)
1.75388050184174e+00	(1.39793967640716e+01dB,-5.68257158380861e-02°)
1.75792361395867e+00	(1.39793967487349e+01dB,-5.69567125845724e-02°)
1.76197604641161e+00	(1.39793967333275e+01dB,-5.70880113093484e-02°)
1.76603782068614e+00	(1.39793967178490e+01dB,-5.72196127085432e-02°)
1.77010895831740e+00	(1.39793967022990e+01dB,-5.73515174798907e-02°)
1.77418948089014e+00	(1.39793966866772e+01dB,-5.74837263227331e-02°)
1.77827941003890e+00	(1.39793966709833e+01dB,-5.76162399380247e-02°)
1.78237876744807e+00	(1.39793966552170e+01dB,-5.77490590283358e-02°)
1.78648757485203e+00	(1.39793966393779e+01dB,-5.78821842978561e-02°)
1.79060585403527e+00	(1.39793966234657e+01dB,-5.80156164523988e-02°)
1.79473362683250e+00	(1.39793966074800e+01dB,-5.81493561994039e-02°)
1.79887091512876e+00	(1.39793965914206e+01dB,-5.82834042479425e-02°)
1.80301774085954e+00	(1.39793965752870e+01dB,-5.84177613087201e-02°)
1.80717412601090e+00	(1.39793965590790e+01dB,-5.85524280940803e-02°)
1.81134009261958e+00	(1.39793965427962e+01dB,-5.86874053180092e-02°)
1.81551566277311e+00	(1.39793965264381e+01dB,-5.88226936961387e-02°)
1.81970085860996e+00	(1.39793965100046e+01dB,-5.89582939457500e-02°)
1.82389570231961e+00	(1.39793964934953e+01dB,-5.90942067857783e-02°)
1.82810021614272e+00	(1.39793964769097e+01dB,-5.92304329368159e-02°)
1.83231442237119e+00	(1.39793964602476e+01dB,-5.93669731211160e-02°)
1.83653834334832e+00	(1.39793964435086e+01dB,-5.95038280625970e-02°)
1.84077200146893e+00	(1.39793964266923e+01dB,-5.96409984868461e-02°)
1.84501541917945e+00	(1.39793964097983e+01dB,-5.97784851211230e-02°)
1.84926861897805e+00	(1.39793963928264e+01dB,-5.99162886943638e-02°)
1.85353162341478e+00	(1.39793963757762e+01dB,-6.00544099371853e-02°)
1.85780445509167e+00	(1.39793963586473e+01dB,-6.01928495818881e-02°)
1.86208713666284e+00	(1.39793963414393e+01dB,-6.03316083624612e-02°)
1.86637969083464e+00	(1.39793963241519e+01dB,-6.04706870145855e-02°)
1.87068214036577e+00	(1.39793963067846e+01dB,-6.06100862756378e-02°)
1.87499450806739e+00	(1.39793962893373e+01dB,-6.07498068846947e-02°)
1.87931681680324e+00	(1.39793962718093e+01dB,-6.08898495825364e-02°)
1.88364908948977e+00	(1.39793962542005e+01dB,-6.10302151116511e-02°)
1.88799134909627e+00	(1.39793962365104e+01dB,-6.11709042162383e-02°)
1.89234361864495e+00	(1.39793962187387e+01dB,-6.13119176422130e-02°)
1.89670592121112e+00	(1.39793962008849e+01dB,-6.14532561372099e-02°)
1.90107827992327e+00	(1.39793961829487e+01dB,-6.15949204505870e-02°)
1.90546071796322e+00	(1.39793961649297e+01dB,-6.17369113334297e-02°)
1.90985325856621e+00	(1.39793961468276e+01dB,-6.18792295385550e-02°)
1.91425592502106e+00	(1.39793961286418e+01dB,-6.20218758205151e-02°)
1.91866874067026e+00	(1.39793961103722e+01dB,-6.21648509356018e-02°)
1.92309172891013e+00	(1.39793960920182e+01dB,-6.23081556418500e-02°)
